# MHz           S          MA           R         50
!-----------------------------------------------------------------------------
!Freq             MagS11           AngS11           MagS21           AngS21           MagS12           AngS12           MagS22           AngS22
 1                0.0180435446     45.4223153       0.987419313     -0.745792062      0.987419313     -0.745792062      0.0180435446     45.4223164      
 1.01             0.0181373629     45.6892659       0.987415449     -0.753106784      0.987415449     -0.753106784      0.0181373629     45.6892665      
 1.0201           0.0182325228     45.9559434       0.987411516     -0.760493174      0.987411516     -0.760493174      0.0182325228     45.9559441      
 1.030301         0.0183290439     46.2223055       0.987407522     -0.767951926      0.987407522     -0.767951926      0.0183290439     46.2223053      
 1.04060401       0.0184269326     46.4883519       0.987403452     -0.775483758      0.987403452     -0.775483758      0.0184269326     46.4883527      
 1.05101005       0.0185262147     46.7540223       0.987399322     -0.78308937       0.987399322     -0.78308937       0.0185262147     46.7540223      
 1.06152015       0.0186268971     47.0193157       0.987395118     -0.790769495      0.987395118     -0.790769495      0.0186268971     47.0193158      
 1.07213535       0.0187289963     47.2842011       0.987390842     -0.798524858      0.987390842     -0.798524858      0.0187289963     47.2842018      
 1.08285671       0.0188325309     47.548642        0.987386497     -0.806356191      0.987386497     -0.806356191      0.018832531      47.5486425      
 1.09368527       0.0189375141     47.812619        0.987382079     -0.814264238      0.987382079     -0.814264238      0.0189375141     47.8126192      
 1.10462213       0.0190439611     48.0761067       0.987377586     -0.822249749      0.987377586     -0.822249749      0.0190439611     48.0761068      
 1.11566835       0.0191518889     48.3390742       0.987373019     -0.83031348       0.987373019     -0.83031348       0.0191518889     48.3390736      
 1.12682503       0.0192613077     48.6015136       0.98736837      -0.838456201      0.98736837      -0.838456201      0.0192613077     48.6015136      
 1.13809328       0.0193722369     48.8633876       0.987363643     -0.846678679      0.987363643     -0.846678679      0.0193722369     48.8633882      
 1.14947421       0.0194846942     49.1246649       0.987358838     -0.854981691      0.987358838     -0.854981691      0.0194846942     49.1246655      
 1.16096896       0.0195986938     49.3853255       0.987353953     -0.863366026      0.987353953     -0.863366026      0.0195986938     49.385326       
 1.17257864       0.01971425       49.6453501       0.987348984     -0.87183248       0.987348984     -0.87183248       0.0197142501     49.6453509      
 1.18430443       0.0198313832     49.9047009       0.987343935     -0.880381849      0.987343935     -0.880381849      0.0198313832     49.904701       
 1.19614748       0.019950106      50.1633643       0.987338801     -0.889014948      0.987338801     -0.889014948      0.019950106      50.1633637      
 1.20810895       0.0200704309     50.4213287       0.987333573     -0.8977326        0.987333573     -0.8977326        0.0200704309     50.421329       
 1.22019004       0.020192382      50.6785455       0.987328262     -0.90653562       0.987328262     -0.90653562       0.020192382      50.6785453      
 1.23239194       0.0203159701     50.9350092       0.987322859     -0.915424849      0.987322859     -0.915424849      0.0203159701     50.9350093      
 1.24471586       0.0204412124     51.1906947       0.987317363     -0.924401128      0.987317363     -0.924401128      0.0204412125     51.1906953      
 1.25716302       0.0205681284     51.44557         0.987311776     -0.933465303      0.987311776     -0.933465303      0.0205681284     51.4455706      
 1.26973465       0.0206967355     51.6996099       0.987306099     -0.942618231      0.987306099     -0.942618231      0.0206967355     51.6996097      
 1.282432         0.0208270447     51.9528115       0.98730032      -0.951860786      0.98730032      -0.951860786      0.0208270447     51.9528116      
 1.29525631       0.0209590758     52.2051434       0.987294442     -0.961193841      0.987294442     -0.961193841      0.0209590758     52.205144       
 1.30820888       0.0210928484     52.4565757       0.987288468     -0.970618273      0.987288468     -0.970618273      0.0210928484     52.456576       
 1.32129097       0.0212283761     52.7070986       0.987282391     -0.980134981      0.987282391     -0.980134981      0.0212283762     52.7070992      
 1.33450388       0.021365679      52.956682        0.987276213     -0.989744859      0.987276213     -0.989744859      0.021365679      52.9566823      
 1.34784892       0.0215047738     53.205307        0.987269931     -0.99944882       0.987269931     -0.99944882       0.0215047738     53.2053067      
 1.3613274        0.0216456746     53.4529652       0.987263539     -1.00924779       0.987263539     -1.00924779       0.0216456746     53.4529652      
 1.37494068       0.0217884022     53.6996254       0.98725704      -1.01914268       0.98725704      -1.01914268       0.0217884022     53.6996254      
 1.38869009       0.0219329724     53.9452745       0.987250428     -1.02913444       0.987250428     -1.02913444       0.0219329724     53.9452749      
 1.40257699       0.0220794042     54.1898888       0.987243704     -1.039224         0.987243704     -1.039224         0.0220794044     54.1898896      
 1.41660276       0.0222277177     54.4334432       0.98723687      -1.04941233       0.98723687      -1.04941233       0.0222277177     54.4334436      
 1.43076878       0.0223779274     54.67593         0.987229917     -1.05970038       0.987229917     -1.05970038       0.0223779275     54.6759304      
 1.44507647       0.0225300533     54.9173254       0.987222848     -1.07008914       0.987222848     -1.07008914       0.0225300534     54.9173256      
 1.45952724       0.0226841122     55.1576168       0.987215656     -1.08057957       0.987215656     -1.08057957       0.0226841122     55.1576171      
 1.47412251       0.0228401227     55.3967852       0.987208342     -1.09117268       0.987208342     -1.09117268       0.0228401228     55.3967857      
 1.48886373       0.0229981069     55.6348025       0.987200907     -1.10186946       0.987200907     -1.10186946       0.0229981069     55.6348023      
 1.50375237       0.0231580773     55.8716721       0.987193341     -1.11267093       0.987193341     -1.11267093       0.0231580774     55.8716723      
 1.51878989       0.0233200553     56.1073695       0.987185645     -1.1235781        0.987185645     -1.1235781        0.0233200554     56.1073701      
 1.53397779       0.0234840625     56.341869        0.987177822     -1.13459201       0.987177822     -1.13459201       0.0234840625     56.3418694      
 1.54931757       0.0236501157     56.575163        0.987169865     -1.14571369       0.987169865     -1.14571369       0.0236501157     56.5751632      
 1.56481075       0.0238182349     56.8072332       0.987161774     -1.15694419       0.987161774     -1.15694419       0.0238182348     56.8072328      
 1.58045885       0.0239884353     57.0380791       0.987153539     -1.1682846        0.987153539     -1.1682846        0.0239884354     57.0380793      
 1.59626344       0.0241607417     57.267668        0.987145168     -1.17973595       0.987145168     -1.17973595       0.0241607418     57.2676681      
 1.61222608       0.0243351713     57.4959942       0.987136653     -1.19129934       0.987136653     -1.19129934       0.0243351713     57.4959944      
 1.62834834       0.0245117459     57.7230367       0.987127996     -1.20297586       0.987127996     -1.20297586       0.0245117458     57.7230363      
 1.64463182       0.0246904794     57.9488025       0.987119183     -1.21476662       0.987119183     -1.21476662       0.0246904795     57.9488029      
 1.66107814       0.0248714007     58.1732487       0.987110229     -1.22667272       0.987110229     -1.22667272       0.0248714006     58.1732482      
 1.67768892       0.02505452       58.3963966       0.987101112     -1.2386953        0.987101112     -1.2386953        0.0250545201     58.3963971      
 1.69446581       0.025239867      58.618202        0.987091846     -1.25083546       0.987091846     -1.25083546       0.025239867      58.618202       
 1.71141047       0.0254274544     58.8386795       0.987082416     -1.26309439       0.987082416     -1.26309439       0.0254274546     58.8386802      
 1.72852457       0.0256173097     59.0577944       0.987072831     -1.27547321       0.987072831     -1.27547321       0.0256173098     59.0577946      
 1.74580982       0.0258094494     59.2755507       0.98706308      -1.28797311       0.98706308      -1.28797311       0.0258094494     59.2755509      
 1.76326792       0.0260038951     59.4919344       0.987053161     -1.30059525       0.987053161     -1.30059525       0.0260038952     59.4919345      
 1.7809006        0.0262006667     59.70694         0.98704307      -1.31334084       0.98704307      -1.31334084       0.0262006669     59.7069406      
 1.7987096        0.0263997893     59.9205448       0.987032811     -1.32621106       0.987032811     -1.32621106       0.0263997893     59.9205451      
 1.8166967        0.0266012812     60.1327489       0.987022374     -1.33920714       0.987022374     -1.33920714       0.0266012813     60.132749       
 1.83486367       0.0268051645     60.3435421       0.987011759     -1.35233029       0.987011759     -1.35233029       0.0268051645     60.3435421      
 1.8532123        0.0270114606     60.5529166       0.98700096      -1.36558176       0.98700096      -1.36558176       0.0270114606     60.5529167      
 1.87174443       0.0272201906     60.7608665       0.986989973     -1.3789628        0.986989973     -1.3789628        0.0272201908     60.7608671      
 1.89046187       0.0274313799     60.9673726       0.986978802     -1.39247465       0.986978802     -1.39247465       0.0274313801     60.9673731      
 1.90936649       0.0276450489     61.1724333       0.98696744      -1.4061186        0.98696744      -1.4061186        0.027645049      61.1724336      
 1.92846015       0.0278612201     61.3760417       0.986955882     -1.41989592       0.986955882     -1.41989592       0.0278612201     61.3760417      
 1.94774475       0.0280799147     61.5781946       0.986944123     -1.43380792       0.986944123     -1.43380792       0.0280799148     61.5781948      
 1.9672222        0.0283011574     61.7788792       0.986932164     -1.44785591       0.986932164     -1.44785591       0.0283011575     61.7788795      
 1.98689442       0.0285249705     61.9780916       0.986919999     -1.4620412        0.986919999     -1.4620412        0.0285249707     61.9780919      
 2.00676337       0.0287513762     62.1758291       0.986907622     -1.47636513       0.986907622     -1.47636513       0.0287513765     62.1758299      
 2.026831         0.0289804015     62.3720736       0.986895037     -1.49082904       0.986895037     -1.49082904       0.0289804016     62.3720739      
 2.04709931       0.0292120673     62.5668287       0.986882236     -1.5054343        0.986882236     -1.5054343        0.0292120673     62.5668286      
 2.06757031       0.0294463961     62.7600935       0.986869211     -1.52018229       0.986869211     -1.52018229       0.0294463961     62.7600935      
 2.08824601       0.0296834143     62.9518549       0.986855964     -1.53507437       0.986855964     -1.53507437       0.0296834142     62.9518547      
 2.10912847       0.0299231424     63.1421204       0.986842483     -1.55011197       0.986842483     -1.55011197       0.0299231427     63.142121       
 2.13021975       0.0301656105     63.3308672       0.986828776     -1.56529648       0.986828776     -1.56529648       0.0301656106     63.3308675      
 2.15152195       0.03041084       63.5181019       0.986814833     -1.58062932       0.986814833     -1.58062932       0.03041084       63.518102       
 2.17303717       0.030658855      63.7038226       0.986800647     -1.59611196       0.986800647     -1.59611196       0.0306588551     63.7038229      
 2.19476754       0.0309096818     63.8880221       0.986786217     -1.61174583       0.986786217     -1.61174583       0.0309096819     63.8880224      
 2.21671522       0.0311633457     64.0706971       0.986771539     -1.6275324        0.986771539     -1.6275324        0.0311633458     64.0706972      
 2.23888237       0.0314198715     64.2518468       0.986756607     -1.64347316       0.986756607     -1.64347316       0.0314198715     64.2518468      
 2.26127119       0.0316792845     64.4314695       0.986741417     -1.6595696        0.986741417     -1.6595696        0.0316792846     64.4314698      
 2.2838839        0.031941612      64.6095584       0.986725965     -1.67582322       0.986725965     -1.67582322       0.0319416121     64.6095586      
 2.30672274       0.0322068799     64.7861127       0.986710248     -1.69223556       0.986710248     -1.69223556       0.0322068798     64.7861126      
 2.32978997       0.0324751121     64.9611375       0.986694255     -1.70880815       0.986694255     -1.70880815       0.0324751123     64.9611378      
 2.35308787       0.032746338      65.134623        0.986677988     -1.72554255       0.986677988     -1.72554255       0.0327463382     65.1346235      
 2.37661875       0.0330205844     65.3065672       0.986661441     -1.74244031       0.986661441     -1.74244031       0.0330205846     65.3065675      
 2.40038494       0.0332978769     65.476974        0.986644607     -1.75950304       0.986644607     -1.75950304       0.0332978771     65.4769743      
 2.42438879       0.0335782441     65.6458386       0.986627483     -1.77673231       0.986627483     -1.77673231       0.0335782441     65.6458387      
 2.44863267       0.0338617132     65.8131606       0.986610064     -1.79412974       0.986610064     -1.79412974       0.0338617131     65.8131604      
 2.473119         0.0341483099     65.9789469       0.986592339     -1.81169698       0.986592339     -1.81169698       0.03414831       65.9789471      
 2.49785019       0.0344380644     66.1431902       0.986574308     -1.82943565       0.986574308     -1.82943565       0.0344380646     66.1431905      
 2.52282869       0.0347310041     66.3058931       0.986555963     -1.84734741       0.986555963     -1.84734741       0.0347310045     66.3058937      
 2.54805698       0.0350271594     66.46705         0.986537304     -1.86543394       0.986537304     -1.86543394       0.0350271598     66.4670505      
 2.57353755       0.0353265582     66.6266638       0.986518323     -1.88369693       0.986518323     -1.88369693       0.0353265584     66.626664       
 2.59927293       0.0356292277     66.7847413       0.986499009     -1.9021381        0.986499009     -1.9021381        0.0356292281     66.7847418      
 2.62526565       0.0359352002     66.9412734       0.986479364     -1.92075914       0.986479364     -1.92075914       0.0359352004     66.9412736      
 2.65151831       0.0362445027     67.0962695       0.986459375     -1.93956182       0.986459375     -1.93956182       0.036244503      67.0962698      
 2.67803349       0.0365571674     67.2497233       0.986439043     -1.95854788       0.986439043     -1.95854788       0.0365571674     67.2497234      
 2.70481383       0.036873222      67.4016433       0.986418355     -1.9777191        0.986418355     -1.9777191        0.0368732221     67.4016433      
 2.73186197       0.0371926979     67.5520282       0.986397308     -1.99707726       0.986397308     -1.99707726       0.037192698      67.5520284      
 2.75918059       0.0375156271     67.700875        0.986375898     -2.01662417       0.986375898     -2.01662417       0.0375156271     67.700875       
 2.78677239       0.0378420383     67.8481926       0.986354113     -2.03636166       0.986354113     -2.03636166       0.0378420384     67.8481927      
 2.81464012       0.0381719646     67.9939771       0.986331951     -2.05629155       0.986331951     -2.05629155       0.0381719646     67.9939772      
 2.84278652       0.0385054369     68.1382326       0.986309404     -2.07641571       0.986309404     -2.07641571       0.0385054368     68.1382326      
 2.87121438       0.0388424857     68.2809648       0.986286463     -2.09673601       0.986286463     -2.09673601       0.038842486      68.2809651      
 2.89992653       0.0391831455     68.4221692       0.986263125     -2.11725435       0.986263125     -2.11725435       0.0391831458     68.4221694      
 2.92892579       0.0395274478     68.5618508       0.986239381     -2.13797262       0.986239381     -2.13797262       0.039527448      68.5618509      
 2.95821505       0.0398754245     68.7000143       0.986215223     -2.15889277       0.986215223     -2.15889277       0.0398754248     68.7000146      
 2.9877972        0.0402271093     68.8366604       0.986190644     -2.18001673       0.986190644     -2.18001673       0.0402271097     68.8366607      
 3.01767517       0.0405825372     68.9717868       0.986165642     -2.20134646       0.986165642     -2.20134646       0.0405825372     68.9717868      
 3.04785192       0.040941738      69.1054077       0.9861402       -2.22288396       0.9861402       -2.22288396       0.0409417382     69.1054079      
 3.07833044       0.0413047483     69.237518        0.986114315     -2.24463122       0.986114315     -2.24463122       0.0413047486     69.2375182      
 3.10911375       0.0416716012     69.3681242       0.986087979     -2.26659026       0.986087979     -2.26659026       0.0416716017     69.3681247      
 3.14020489       0.0420423335     69.4972231       0.986061187     -2.28876311       0.986061187     -2.28876311       0.0420423337     69.4972233      
 3.17160693       0.0424169776     69.6248247       0.986033926     -2.31115184       0.986033926     -2.31115184       0.0424169777     69.6248248      
 3.203323         0.0427955688     69.7509318       0.986006189     -2.33375852       0.986006189     -2.33375852       0.0427955692     69.7509322      
 3.23535623       0.0431781451     69.8755415       0.985977971     -2.35658523       0.985977971     -2.35658523       0.0431781451     69.8755415      
 3.2677098        0.0435647392     69.9986655       0.985949259     -2.3796341        0.985949259     -2.3796341        0.0435647393     69.9986655      
 3.30038689       0.0439553891     70.1203027       0.985920046     -2.40290727       0.985920046     -2.40290727       0.0439553891     70.1203027      
 3.33339076       0.0443501302     70.2404593       0.985890321     -2.42640689       0.985890321     -2.42640689       0.0443501305     70.2404596      
 3.36672467       0.0447490013     70.359134        0.985860081     -2.45013511       0.985860081     -2.45013511       0.0447490013     70.359134       
 3.40039192       0.0451520366     70.4763386       0.985829308     -2.47409417       0.985829308     -2.47409417       0.045152037      70.4763389      
 3.43439584       0.0455592767     70.5920682       0.985798001     -2.49828623       0.985798001     -2.49828623       0.045559277      70.5920685      
 3.4687398        0.045970758      70.7063309       0.985766147     -2.52271357       0.985766147     -2.52271357       0.0459707583     70.7063312      
 3.50342719       0.0463865188     70.8191305       0.985733736     -2.54737841       0.985733736     -2.54737841       0.0463865191     70.8191307      
 3.53846147       0.0468065975     70.9304714       0.985700758     -2.57228305       0.985700758     -2.57228305       0.0468065979     70.9304717      
