# MHz           S          MA           R         50
!-----------------------------------------------------------------------------
!Freq             MagS11           AngS11           MagS21           AngS21           MagS12           AngS12           MagS22           AngS22
 1                0.00457191956    47.5353328       0.996919041     -0.19383772       0.996919041     -0.19383772       0.00457191956    47.5353327      
 1.01             0.00459709299    47.7976533       0.996917707     -0.195719906      0.996917707     -0.195719906      0.004597093      47.7976542      
 1.0201           0.00462261815    48.0594599       0.996916363     -0.197620336      0.996916363     -0.197620336      0.00462261815    48.0594597      
 1.030301         0.00464849076    48.3208351       0.996914995     -0.19953919       0.996914995     -0.19953919       0.00464849076    48.3208346      
 1.04060401       0.00467471283    48.5817778       0.996913601     -0.201476645      0.996913601     -0.201476645      0.00467471284    48.5817783      
 1.05101005       0.00470129455    48.8421751       0.996912191     -0.20343288       0.996912191     -0.20343288       0.00470129456    48.8421756      
 1.06152015       0.00472823564    49.1020577       0.996910758     -0.205408077      0.996910758     -0.205408077      0.00472823565    49.1020586      
 1.07213535       0.00475554206    49.3613711       0.996909305     -0.207402419      0.996909305     -0.207402419      0.00475554207    49.361372       
 1.08285671       0.00478321871    49.6200759       0.996907834     -0.209416091      0.996907834     -0.209416091      0.00478321871    49.6200761      
 1.09368527       0.00481126382    49.8782258       0.996906337     -0.21144928       0.996906337     -0.21144928       0.00481126383    49.8782263      
 1.10462213       0.0048396855     50.1357377       0.996904819     -0.213502176      0.996904819     -0.213502176      0.00483968551    50.1357382      
 1.11566835       0.00486848708    50.392596        0.996903279     -0.215574967      0.996903279     -0.215574967      0.00486848708    50.3925962      
 1.12682503       0.00489767089    50.6487991       0.996901715     -0.217667847      0.996901715     -0.217667847      0.0048976709     50.6487993      
 1.13809328       0.00492724152    50.9043147       0.996900128     -0.219781011      0.996900128     -0.219781011      0.00492724152    50.9043149      
 1.14947421       0.00495720255    51.1591252       0.996898517     -0.221914652      0.996898517     -0.221914652      0.00495720255    51.1591255      
 1.16096896       0.00498755987    51.4131808       0.996896884     -0.22406897       0.996896884     -0.22406897       0.00498755987    51.4131806      
 1.17257864       0.0050183118     51.6665399       0.996895221     -0.226244166      0.996895221     -0.226244166      0.00501831182    51.6665406      
 1.18430443       0.00504947038    51.9190666       0.99689354      -0.228440439      0.99689354      -0.228440439      0.00504947039    51.9190667      
 1.19614748       0.00508103351    52.1708265       0.996891831     -0.230657994      0.996891831     -0.230657994      0.00508103351    52.1708266      
 1.20810895       0.00511300615    52.4217855       0.996890095     -0.232897036      0.996890095     -0.232897036      0.00511300616    52.4217861      
 1.22019004       0.00514539718    52.6718542       0.99688834      -0.235157772      0.99688834      -0.235157772      0.00514539716    52.6718537      
 1.23239194       0.00517820004    52.9211648       0.996886548     -0.237440415      0.996886548     -0.237440415      0.00517820006    52.9211654      
 1.24471586       0.00521143073    53.1695266       0.996884739     -0.239745173      0.996884739     -0.239745173      0.00521143073    53.1695265      
 1.25716302       0.00524508611    53.4170247       0.996882899     -0.24207226       0.996882899     -0.24207226       0.00524508611    53.4170246      
 1.26973465       0.00527917201    53.6636157       0.996881032     -0.244421894      0.996881032     -0.244421894      0.00527917201    53.6636156      
 1.282432         0.00531369068    53.9093088       0.996879133     -0.246794291      0.996879133     -0.246794291      0.0053136907     53.9093093      
 1.29525631       0.00534865108    54.1540164       0.996877211     -0.24918967       0.996877211     -0.24918967       0.00534865109    54.1540166      
 1.30820888       0.00538405239    54.3977939       0.996875257     -0.251608256      0.996875257     -0.251608256      0.00538405241    54.3977945      
 1.32129097       0.00541990219    54.6405751       0.996873276     -0.25405027       0.996873276     -0.25405027       0.00541990221    54.6405757      
 1.33450388       0.00545620545    54.8823325       0.996871268     -0.256515938      0.996871268     -0.256515938      0.00545620545    54.8823324      
 1.34784892       0.00549296243    55.123108        0.996869227     -0.259005491      0.996869227     -0.259005491      0.00549296243    55.123108       
 1.3613274        0.00553017882    55.3628657       0.996867154     -0.261519159      0.996867154     -0.261519159      0.00553017884    55.3628659      
 1.37494068       0.00556786054    55.6015663       0.996865052     -0.264057173      0.996865052     -0.264057173      0.00556786055    55.6015665      
 1.38869009       0.00560601071    55.8392123       0.996862918     -0.26661977       0.996862918     -0.26661977       0.00560601073    55.8392127      
 1.40257699       0.00564463402    56.0757848       0.996860752     -0.269207186      0.996860752     -0.269207186      0.00564463404    56.0757852      
 1.41660276       0.00568373477    56.3112705       0.996858554     -0.271819662      0.996858554     -0.271819662      0.0056837348     56.3112711      
 1.43076878       0.00572331814    56.5456443       0.996856323     -0.274457438      0.996856323     -0.274457438      0.00572331817    56.5456449      
 1.44507647       0.0057633879     56.7789028       0.99685406      -0.277120759      0.99685406      -0.277120759      0.00576338793    56.7789034      
 1.45952724       0.00580394906    57.0110253       0.996851763     -0.279809872      0.996851763     -0.279809872      0.00580394908    57.0110257      
 1.47412251       0.00584500556    57.2420071       0.996849431     -0.282525026      0.996849431     -0.282525026      0.00584500558    57.2420075      
 1.48886373       0.00588656373    57.4718095       0.996847067     -0.28526647       0.996847067     -0.28526647       0.00588656371    57.4718093      
 1.50375237       0.00592862455    57.7004742       0.996844664     -0.288034462      0.996844664     -0.288034462      0.00592862454    57.7004741      
 1.51878989       0.00597119573    57.9279431       0.996842227     -0.290829254      0.996842227     -0.290829254      0.00597119572    57.9279428      
 1.53397779       0.00601427907    58.1542479       0.99683975      -0.293651108      0.99683975      -0.293651108      0.00601427908    58.1542481      
 1.54931757       0.00605788288    58.379323        0.996837239     -0.296500283      0.996837239     -0.296500283      0.00605788288    58.379323       
 1.56481075       0.00610200885    58.6032033       0.996834688     -0.299377043      0.996834688     -0.299377043      0.00610200888    58.6032038      
 1.58045885       0.00614666625    58.8258108       0.996832105     -0.302281652      0.996832105     -0.302281652      0.00614666623    58.8258105      
 1.59626344       0.00619185441    59.0472176       0.996829479     -0.305214382      0.996829479     -0.305214382      0.00619185441    59.0472175      
 1.61222608       0.00623758013    59.2673847       0.996826812     -0.308175503      0.996826812     -0.308175503      0.00623758015    59.2673849      
 1.62834834       0.00628385028    59.4862727       0.996824109     -0.311165288      0.996824109     -0.311165288      0.00628385027    59.4862727      
 1.64463182       0.00633066695    59.7039151       0.996821362     -0.314184015      0.996821362     -0.314184015      0.00633066696    59.7039152      
 1.66107814       0.00637803649    59.9202822       0.996818575     -0.317231962      0.996818575     -0.317231962      0.00637803651    59.9202825      
 1.67768892       0.00642596568    60.1353387       0.99681575      -0.320309409      0.99681575      -0.320309409      0.00642596567    60.1353385      
 1.69446581       0.0064744549     60.349147        0.996812876     -0.323416645      0.996812876     -0.323416645      0.00647445493    60.3491474      
 1.71141047       0.00652351327    60.5616382       0.996809962     -0.326553953      0.996809962     -0.326553953      0.00652351332    60.5616388      
 1.72852457       0.00657314471    60.7728234       0.996807005     -0.329721625      0.996807005     -0.329721625      0.00657314476    60.772824       
 1.74580982       0.00662335598    60.9826709       0.996804006     -0.332919951      0.996804006     -0.332919951      0.00662335599    60.9826711      
 1.76326792       0.00667414974    61.1912127       0.996800961     -0.33614923       0.996800961     -0.33614923       0.00667414975    61.1912129      
 1.7809006        0.00672553101    61.3984459       0.996797867     -0.33940976       0.996797867     -0.33940976       0.00672553105    61.3984464      
 1.7987096        0.00677750851    61.6043124       0.996794732     -0.342701838      0.996794732     -0.342701838      0.00677750851    61.6043124      
 1.8166967        0.00683008529    61.8088409       0.996791549     -0.346025772      0.996791549     -0.346025772      0.00683008525    61.8088405      
 1.83486367       0.00688326454    62.0120595       0.996788315     -0.349381869      0.996788315     -0.349381869      0.00688326454    62.0120594      
 1.8532123        0.00693705467    62.2139174       0.996785033     -0.352770438      0.996785033     -0.352770438      0.00693705469    62.2139176      
 1.87174443       0.00699146073    62.4144165       0.996781702     -0.356191791      0.996781702     -0.356191791      0.00699146075    62.4144167      
 1.89046187       0.00704648874    62.6135444       0.996778324     -0.359646244      0.996778324     -0.359646244      0.00704648873    62.6135444      
 1.90936649       0.00710214219    62.8113283       0.996774892     -0.363134117      0.996774892     -0.363134117      0.00710214221    62.8113285      
 1.92846015       0.00715842893    63.0077304       0.99677141      -0.36665573       0.99677141      -0.36665573       0.00715842894    63.0077305      
 1.94774475       0.00721535302    63.2027713       0.996767875     -0.370211411      0.996767875     -0.370211411      0.00721535305    63.2027716      
 1.9672222        0.00727292117    63.3964324       0.996764287     -0.373801485      0.996764287     -0.373801485      0.0072729212     63.3964328      
 1.98689442       0.00733113969    63.5887022       0.996760648     -0.377426283      0.996760648     -0.377426283      0.0073311397     63.5887022      
 2.00676337       0.00739001346    63.779592        0.996756954     -0.381086142      0.996756954     -0.381086142      0.00739001344    63.7795918      
 2.026831         0.00744954609    63.9691336       0.996753199     -0.384781399      0.996753199     -0.384781399      0.00744954614    63.9691341      
 2.04709931       0.0075097477     64.1572605       0.996749392     -0.388512393      0.996749392     -0.388512393      0.00750974774    64.1572609      
 2.06757031       0.00757062312    64.3439881       0.99674553      -0.392279469      0.99674553      -0.392279469      0.00757062312    64.3439881      
 2.08824601       0.00763217632    64.5293456       0.996741607     -0.396082974      0.996741607     -0.396082974      0.00763217633    64.5293457      
 2.10912847       0.00769441512    64.7133049       0.996737626     -0.399923259      0.996737626     -0.399923259      0.00769441513    64.713305       
 2.13021975       0.00775734558    64.8958658       0.996733587     -0.403800678      0.996733587     -0.403800678      0.00775734557    64.8958657      
 2.15152195       0.00782097249    65.0770484       0.996729484     -0.407715588      0.996729484     -0.407715588      0.0078209725     65.0770485      
 2.17303717       0.00788530474    65.2568114       0.996725323     -0.411668349      0.996725323     -0.411668349      0.0078853047     65.2568111      
 2.19476754       0.00795034506    65.4352087       0.996721096     -0.415659328      0.996721096     -0.415659328      0.00795034505    65.4352086      
 2.21671522       0.00801610184    65.6122085       0.996716805     -0.41968889       0.996716805     -0.41968889       0.00801610187    65.6122087      
 2.23888237       0.00808258224    65.7877995       0.996712452     -0.423757406      0.996712452     -0.423757406      0.00808258226    65.7877996      
 2.26127119       0.00814979132    65.9620031       0.996708033     -0.427865251      0.996708033     -0.427865251      0.00814979135    65.9620033      
 2.2838839        0.00821773621    66.1348104       0.996703547     -0.432012805      0.996703547     -0.432012805      0.00821773625    66.1348107      
 2.30672274       0.00828642382    66.3062169       0.996698995     -0.436200447      0.996698995     -0.436200447      0.00828642385    66.3062171      
 2.32978997       0.00835586094    66.4762214       0.996694376     -0.440428563      0.996694376     -0.440428563      0.00835586093    66.4762213      
 2.35308787       0.00842605206    66.6448581       0.996689683     -0.444697545      0.996689683     -0.444697545      0.0084260521     66.6448583      
 2.37661875       0.00849700651    66.8120892       0.996684923     -0.449007783      0.996684923     -0.449007783      0.00849700655    66.8120895      
 2.40038494       0.00856872924    66.9779449       0.996680088     -0.453359676      0.996680088     -0.453359676      0.00856872933    66.9779454      
 2.42438879       0.0086412305     67.1423756       0.996675186     -0.457753619      0.996675186     -0.457753619      0.0086412305     67.1423756      
 2.44863267       0.00871451238    67.3054566       0.996670205     -0.462190022      0.996670205     -0.462190022      0.00871451245    67.305457       
 2.473119         0.0087885868     67.467116        0.996665155     -0.466669289      0.996665155     -0.466669289      0.00878858677    67.4671159      
 2.49785019       0.00886345571    67.6274328       0.996660022     -0.471191836      0.996660022     -0.471191836      0.00886345577    67.6274331      
 2.52282869       0.00893913072    67.7863426       0.996654817     -0.475758075      0.996654817     -0.475758075      0.00893913074    67.7863427      
 2.54805698       0.00901561639    67.9438875       0.996649531     -0.480368427      0.996649531     -0.480368427      0.00901561643    67.9438877      
 2.57353755       0.00909292151    68.1000475       0.996644167     -0.485023315      0.996644167     -0.485023315      0.00909292153    68.1000476      
 2.59927293       0.00917105141    68.2548556       0.996638718     -0.48972317       0.996638718     -0.48972317       0.00917105151    68.2548561      
 2.62526565       0.0092500173     68.4082581       0.996633194     -0.494468417      0.996633194     -0.494468417      0.00925001731    68.4082582      
 2.65151831       0.00932982231    68.5603232       0.996627582     -0.499259499      0.996627582     -0.499259499      0.00932982237    68.5603235      
 2.67803349       0.00941047763    68.7109999       0.996621889     -0.504096851      0.996621889     -0.504096851      0.00941047761    68.7109998      
 2.70481383       0.0094919884     68.8603285       0.996616109     -0.50898092       0.996616109     -0.50898092       0.00949198838    68.8603284      
 2.73186197       0.00957436188    69.0083191       0.996610238     -0.513912155      0.996610238     -0.513912155      0.00957436195    69.0083194      
 2.75918059       0.00965760954    69.1549208       0.996604285     -0.518891004      0.996604285     -0.518891004      0.0096576095     69.1549207      
 2.78677239       0.00974173537    69.3001941       0.996598239     -0.523917929      0.996598239     -0.523917929      0.00974173535    69.300194       
 2.81464012       0.00982674871    69.4441221       0.996592101     -0.528993389      0.996592101     -0.528993389      0.0098267487     69.4441221      
 2.84278652       0.00991265703    69.5867165       0.996585869     -0.534117851      0.996585869     -0.534117851      0.00991265709    69.5867167      
 2.87121438       0.00999947039    69.7279522       0.996579548     -0.539291781      0.996579548     -0.539291781      0.00999947039    69.7279522      
 2.89992653       0.0100871941     69.8678758       0.996573127     -0.544515659      0.996573127     -0.544515659      0.0100871941     69.867876       
 2.92892579       0.0101758387     70.0064555       0.996566612     -0.549789959      0.996566612     -0.549789959      0.0101758388     70.0064557      
 2.95821505       0.0102654115     70.1437132       0.996559998     -0.555115167      0.996559998     -0.555115167      0.0102654115     70.1437134      
 2.9877972        0.0103559215     70.279642        0.996553287     -0.56049177       0.996553287     -0.56049177       0.0103559215     70.279642       
 3.01767517       0.0104473761     70.4142649       0.996546472     -0.565920262      0.996546472     -0.565920262      0.0104473761     70.4142649      
 3.04785192       0.0105397848     70.5475701       0.996539555     -0.571401139      0.996539555     -0.571401139      0.0105397848     70.54757        
 3.07833044       0.0106331551     70.679579        0.996532532     -0.576934905      0.996532532     -0.576934905      0.0106331551     70.679579       
 3.10911375       0.0107274969     70.8102816       0.996525405     -0.582522064      0.996525405     -0.582522064      0.0107274969     70.8102816      
 3.14020489       0.0108228181     70.9396928       0.996518168     -0.58816313       0.996518168     -0.58816313       0.0108228181     70.939693       
 3.17160693       0.0109191287     71.0678036       0.996510824     -0.593858616      0.996510824     -0.593858616      0.0109191287     71.0678037      
 3.203323         0.0110164362     71.1946379       0.996503367     -0.599609048      0.996503367     -0.599609048      0.0110164363     71.1946382      
 3.23535623       0.0111147518     71.3201732       0.996495801     -0.605414946      0.996495801     -0.605414946      0.0111147518     71.3201732      
 3.2677098        0.0112140821     71.4444479       0.996488118     -0.611276847      0.996488118     -0.611276847      0.0112140822     71.4444481      
 3.30038689       0.0113144383     71.5674415       0.996480321     -0.617195284      0.996480321     -0.617195284      0.0113144383     71.5674416      
 3.33339076       0.0114158287     71.6891721       0.996472405     -0.623170798      0.996472405     -0.623170798      0.0114158288     71.6891722      
 3.36672467       0.0115182631     71.8096418       0.99646437      -0.629203936      0.99646437      -0.629203936      0.0115182631     71.8096419      
 3.40039192       0.0116217513     71.9288483       0.996456215     -0.635295249      0.996456215     -0.635295249      0.0116217513     71.9288481      
 3.43439584       0.0117263008     72.0468289       0.996447931     -0.641445296      0.996447931     -0.641445296      0.0117263009     72.0468291      
 3.4687398        0.0118319246     72.1635427       0.996439528     -0.647654634      0.996439528     -0.647654634      0.0118319246     72.1635427      
 3.50342719       0.0119386296     72.2790338       0.996430994     -0.653923835      0.996430994     -0.653923835      0.0119386296     72.279034       
 3.53846147       0.0120464274     72.3932834       0.996422332     -0.660253468      0.996422332     -0.660253468      0.0120464275     72.3932836      
