# MHz           S          MA           R         50
!-----------------------------------------------------------------------------
!Freq             MagS11           AngS11           MagS21           AngS21           MagS12           AngS12           MagS22           AngS22
 1                0.00565933575    53.0378704       0.996607379     -0.259974205      0.996607379     -0.259974205      0.00565933573    53.0378699      
 1.01             0.0056954903     53.2891618       0.996605833     -0.262496462      0.996605833     -0.262496462      0.00569549028    53.2891612      
 1.0201           0.0057321078     53.5396221       0.996604259     -0.265043152      0.996604259     -0.265043152      0.00573210781    53.5396225      
 1.030301         0.00576920019    53.7891338       0.996602668     -0.26761451       0.996602668     -0.26761451       0.00576920018    53.7891336      
 1.04060401       0.00580676466    54.0377758       0.996601049     -0.270210775      0.996601049     -0.270210775      0.00580676467    54.037776       
 1.05101005       0.00584481236    54.2854422       0.996599411     -0.272832188      0.996599411     -0.272832188      0.00584481233    54.2854414      
 1.06152015       0.00588334011    54.5322186       0.996597742     -0.275478993      0.996597742     -0.275478993      0.0058833401     54.5322184      
 1.07213535       0.00592235631    54.7780373       0.996596047     -0.278151434      0.996596047     -0.278151434      0.00592235632    54.7780378      
 1.08285671       0.00596186962    55.0228271       0.996594334     -0.280849757      0.996594334     -0.280849757      0.0059618696     55.0228268      
 1.09368527       0.0060018783     55.2666572       0.996592589     -0.283574216      0.996592589     -0.283574216      0.0060018783     55.2666572      
 1.10462213       0.00604239019    55.5094695       0.996590819     -0.286325061      0.996590819     -0.286325061      0.00604239019    55.5094696      
 1.11566835       0.00608340928    55.7512577       0.996589022     -0.289102548      0.996589022     -0.289102548      0.0060834093     55.7512579      
 1.12682503       0.00612494084    55.9919995       0.996587198     -0.291906934      0.996587198     -0.291906934      0.00612494086    55.9919999      
 1.13809328       0.00616699089    56.231663        0.996585349     -0.294738477      0.996585349     -0.294738477      0.00616699089    56.231663       
 1.14947421       0.00620956284    56.4702526       0.996583472     -0.297597441      0.996583472     -0.297597441      0.00620956282    56.4702521      
 1.16096896       0.00625265892    56.7077895       0.996581562     -0.300484092      0.996581562     -0.300484092      0.00625265893    56.7077897      
 1.17257864       0.00629629025    56.9441749       0.996579629     -0.303398695      0.996579629     -0.303398695      0.00629629022    56.9441744      
 1.18430443       0.00634045305    57.179514        0.996577658     -0.306341524      0.996577658     -0.306341524      0.00634045308    57.1795145      
 1.19614748       0.00638516314    57.4136446       0.996575667     -0.309312845      0.996575667     -0.309312845      0.00638516313    57.4136443      
 1.20810895       0.00643041739    57.6466654       0.996573642     -0.312312938      0.996573642     -0.312312938      0.00643041737    57.6466651      
 1.22019004       0.00647622141    57.8785559       0.996571583     -0.315342082      0.996571583     -0.315342082      0.00647622143    57.8785562      
 1.23239194       0.00652258476    58.109242        0.996569497     -0.318400553      0.996569497     -0.318400553      0.00652258477    58.109242       
 1.24471586       0.00656950855    58.3387669       0.996567377     -0.321488637      0.996567377     -0.321488637      0.00656950857    58.3387672      
 1.25716302       0.00661700171    58.5670668       0.996565229     -0.324606618      0.996565229     -0.324606618      0.00661700169    58.5670665      
 1.26973465       0.00666506563    58.794183        0.996563046     -0.327754788      0.996563046     -0.327754788      0.0066650656     58.7941826      
 1.282432         0.0067137074     59.0200787       0.996560831     -0.330933435      0.996560831     -0.330933435      0.00671370736    59.0200781      
 1.29525631       0.00676293049    59.2447687       0.996558579     -0.334142856      0.996558579     -0.334142856      0.00676293047    59.2447684      
 1.30820888       0.00681274265    59.4682085       0.996556296     -0.337383346      0.996556296     -0.337383346      0.00681274263    59.4682082      
 1.32129097       0.00686314779    59.6904087       0.996553976     -0.340655206      0.996553976     -0.340655206      0.00686314777    59.6904085      
 1.33450388       0.00691415163    59.9113551       0.996551622     -0.343958738      0.996551622     -0.343958738      0.00691415163    59.911355       
 1.34784892       0.00696575942    60.1310411       0.996549231     -0.347294249      0.996549231     -0.347294249      0.00696575944    60.1310414      
 1.3613274        0.00701797898    60.3494255       0.996546808     -0.350662045      0.996546808     -0.350662045      0.00701797896    60.3494253      
 1.37494068       0.00707081388    60.5665268       0.996544348     -0.354062439      0.996544348     -0.354062439      0.00707081382    60.566526       
 1.38869009       0.00712426579    60.7823914       0.996541843     -0.357495749      0.996541843     -0.357495749      0.0071242658     60.7823916      
 1.40257699       0.00717834921    60.9968874       0.996539311     -0.360962286      0.996539311     -0.360962286      0.00717834914    60.9968867      
 1.41660276       0.00723306087    61.2101321       0.996536732     -0.364462377      0.996536732     -0.364462377      0.00723306085    61.2101318      
 1.43076878       0.00728841156    61.4220473       0.996534117     -0.367996342      0.996534117     -0.367996342      0.00728841154    61.422047       
 1.44507647       0.00734440604    61.63264         0.996531462     -0.371564508      0.996531462     -0.371564508      0.00734440601    61.6326397      
 1.45952724       0.00740104912    61.8419176       0.996528765     -0.375167207      0.996528765     -0.375167207      0.00740104911    61.8419175      
 1.47412251       0.0074583481     62.0498536       0.996526029     -0.378804769      0.996526029     -0.378804769      0.00745834809    62.0498535      
 1.48886373       0.00751630777    62.2564577       0.996523251     -0.382477534      0.996523251     -0.382477534      0.00751630777    62.2564578      
 1.50375237       0.0075749353     62.461707        0.996520432     -0.386185838      0.996520432     -0.386185838      0.00757493529    62.4617069      
 1.51878989       0.00763423512    62.6656185       0.996517568     -0.389930026      0.996517568     -0.389930026      0.00763423512    62.6656185      
 1.53397779       0.00769421469    62.8681673       0.996514663     -0.393710444      0.996514663     -0.393710444      0.00769421468    62.8681671      
 1.54931757       0.00775487907    63.0693632       0.996511712     -0.39752744       0.996511712     -0.39752744       0.00775487906    63.0693631      
 1.56481075       0.00781623563    63.2691851       0.996508719     -0.401381368      0.996508719     -0.401381368      0.00781623558    63.2691847      
 1.58045885       0.00787828746    63.4676725       0.996505675     -0.405272585      0.996505675     -0.405272585      0.00787828747    63.4676726      
 1.59626344       0.00794104351    63.6647837       0.996502586     -0.409201449      0.996502586     -0.409201449      0.00794104357    63.6647842      
 1.61222608       0.00800451234    63.8604838       0.996499456     -0.413168322      0.996499456     -0.413168322      0.00800451232    63.8604837      
 1.62834834       0.00806869637    64.0548251       0.996496275     -0.417173572      0.996496275     -0.417173572      0.00806869633    64.0548248      
 1.64463182       0.0081336031     64.2477894       0.996493046     -0.421217569      0.996493046     -0.421217569      0.00813360304    64.247789       
 1.66107814       0.0081992388     64.4393771       0.996489767     -0.425300686      0.996489767     -0.425300686      0.00819923874    64.4393766      
 1.67768892       0.00826560971    64.62959         0.996486436     -0.429423302      0.996486436     -0.429423302      0.00826560968    64.6295897      
 1.69446581       0.00833272322    64.8184145       0.996483056     -0.433585796      0.996483056     -0.433585796      0.00833272322    64.8184144      
 1.71141047       0.00840058652    65.0058416       0.996479625     -0.437788551      0.996479625     -0.437788551      0.0084005865     65.0058414      
 1.72852457       0.00846920503    65.1918875       0.996476141     -0.442031957      0.996476141     -0.442031957      0.00846920503    65.1918875      
 1.74580982       0.00853858737    65.3765249       0.996472606     -0.446316404      0.996472606     -0.446316404      0.00853858732    65.3765246      
 1.76326792       0.00860873698    65.5598006       0.996469013     -0.450642291      0.996469013     -0.450642291      0.00860873699    65.5598006      
 1.7809006        0.00867966438    65.7416626       0.996465369     -0.455010013      0.996465369     -0.455010013      0.00867966436    65.7416625      
 1.7987096        0.00875137481    65.9221342       0.996461669     -0.459419976      0.996461669     -0.459419976      0.00875137478    65.922134       
 1.8166967        0.00882387435    66.1012285       0.996457911     -0.463872586      0.996457911     -0.463872586      0.00882387436    66.1012286      
 1.83486367       0.00889717217    66.2789156       0.996454097     -0.468368253      0.996454097     -0.468368253      0.00889717217    66.2789156      
 1.8532123        0.00897127444    66.4552096       0.996450225     -0.472907393      0.996450225     -0.472907393      0.00897127443    66.4552094      
 1.87174443       0.00904618846    66.6301093       0.996446295     -0.477490423      0.996446295     -0.477490423      0.00904618842    66.6301091      
 1.89046187       0.00912192018    66.8036339       0.996442301     -0.482117769      0.996442301     -0.482117769      0.00912192018    66.8036339      
 1.90936649       0.00919847864    66.9757602       0.996438249     -0.486789855      0.996438249     -0.486789855      0.00919847865    66.9757603      
 1.92846015       0.00927587153    67.1464853       0.996434136     -0.491507111      0.996434136     -0.491507111      0.00927587149    67.1464851      
 1.94774475       0.00935410371    67.3158468       0.996429956     -0.496269976      0.996429956     -0.496269976      0.00935410374    67.3158469      
 1.9672222        0.00943318688    67.483788        0.996425719     -0.501078884      0.996425719     -0.501078884      0.00943318682    67.4837877      
 1.98689442       0.00951312417    67.6503729       0.996421412     -0.505934283      0.996421412     -0.505934283      0.00951312416    67.6503729      
 2.00676337       0.00959392589    67.8155668       0.99641704      -0.510836617      0.99641704      -0.510836617      0.00959392589    67.8155668      
 2.026831         0.00967559989    67.9793702       0.996412603     -0.515786339      0.996412603     -0.515786339      0.00967559985    67.97937        
 2.04709931       0.00975815317    68.1417966       0.996408098     -0.520783906      0.996408098     -0.520783906      0.00975815311    68.1417963      
 2.06757031       0.00984159301    68.3028568       0.996403522     -0.525829778      0.996403522     -0.525829778      0.00984159298    68.3028567      
 2.08824601       0.00992592919    68.4625284       0.996398879     -0.530924419      0.996398879     -0.530924419      0.00992592911    68.462528       
 2.10912847       0.0100111673     68.6208482       0.996394161     -0.5360683        0.996394161     -0.5360683        0.0100111673     68.6208481      
 2.13021975       0.010097318      68.7777833       0.996389374     -0.541261892      0.996389374     -0.541261892      0.0100973179     68.7777831      
 2.15152195       0.0101843876     68.9333617       0.996384512     -0.546505677      0.996384512     -0.546505677      0.0101843876     68.9333616      
 2.17303717       0.0102723864     69.0875617       0.996379579     -0.551800133      0.996379579     -0.551800133      0.0102723863     69.0875613      
 2.19476754       0.0103613201     69.2404193       0.996374567     -0.557145752      0.996374567     -0.557145752      0.0103613201     69.2404191      
 2.21671522       0.0104511983     69.3919252       0.996369477     -0.562543026      0.996369477     -0.562543026      0.0104511983     69.3919252      
 2.23888237       0.0105420306     69.5420661       0.996364312     -0.567992447      0.996364312     -0.567992447      0.0105420306     69.5420661      
 2.26127119       0.0106338248     69.6908559       0.996359068     -0.573494521      0.996359068     -0.573494521      0.0106338248     69.6908558      
 2.2838839        0.0107265895     69.8382999       0.996353744     -0.579049751      0.996353744     -0.579049751      0.0107265895     69.8382997      
 2.30672274       0.0108203323     69.9844191       0.996348336     -0.584658653      0.996348336     -0.584658653      0.0108203323     69.9844191      
 2.32978997       0.0109150649     70.129177        0.996342849     -0.590321737      0.996342849     -0.590321737      0.0109150648     70.1291767      
 2.35308787       0.0110107922     70.2726327       0.996337272     -0.59603953       0.996337272     -0.59603953       0.0110107923     70.2726329      
 2.37661875       0.0111075275     70.4147324       0.996331615     -0.601812551      0.996331615     -0.601812551      0.0111075275     70.4147323      
 2.40038494       0.0112052775     70.5555133       0.99632587      -0.607641336      0.99632587      -0.607641336      0.0112052774     70.5555131      
 2.42438879       0.0113040507     70.6949877       0.996320034     -0.61352642       0.996320034     -0.61352642       0.0113040507     70.6949877      
 2.44863267       0.0114038584     70.8331332       0.996314112     -0.619468342      0.996314112     -0.619468342      0.0114038584     70.8331331      
 2.473119         0.0115047086     70.9699743       0.996308097     -0.625467651      0.996308097     -0.625467651      0.0115047086     70.9699743      
 2.49785019       0.0116066112     71.1055069       0.996301991     -0.631524895      0.996301991     -0.631524895      0.0116066112     71.1055069      
 2.52282869       0.0117095759     71.2397351       0.996295792     -0.637640632      0.996295792     -0.637640632      0.0117095759     71.239735       
 2.54805698       0.0118136116     71.3726745       0.996289495     -0.643815426      0.996289495     -0.643815426      0.0118136116     71.3726746      
 2.57353755       0.0119187295     71.5043081       0.996283106     -0.650049839      0.996283106     -0.650049839      0.0119187295     71.5043079      
 2.59927293       0.0120249375     71.6346682       0.996276615     -0.656344449      0.996276615     -0.656344449      0.0120249375     71.6346681      
 2.62526565       0.0121322462     71.763751        0.996270024     -0.662699833      0.996270024     -0.662699833      0.0121322462     71.7637511      
 2.65151831       0.0122406665     71.8915479       0.996263333     -0.669116571      0.996263333     -0.669116571      0.0122406664     71.8915479      
 2.67803349       0.0123502079     72.0180721       0.99625654      -0.675595253      0.99625654      -0.675595253      0.0123502079     72.018072       
 2.70481383       0.0124608799     72.14334         0.996249641     -0.682136477      0.996249641     -0.682136477      0.0124608799     72.14334        
 2.73186197       0.0125726942     72.2673382       0.996242638     -0.68874084       0.996242638     -0.68874084       0.0125726941     72.2673381      
 2.75918059       0.0126856595     72.3900935       0.996235524     -0.69540895       0.996235524     -0.69540895       0.0126856595     72.3900936      
 2.78677239       0.012799788      72.5115893       0.996228304     -0.702141416      0.996228304     -0.702141416      0.012799788      72.5115893      
 2.81464012       0.0129150889     72.6318486       0.99622097      -0.708938859      0.99622097      -0.708938859      0.0129150889     72.6318487      
 2.84278652       0.0130315749     72.7508522       0.996213528     -0.715801896      0.996213528     -0.715801896      0.0130315748     72.7508519      
 2.87121438       0.0131492539     72.8686431       0.996205966     -0.722731165      0.996205966     -0.722731165      0.0131492539     72.8686431      
 2.89992653       0.0132681389     72.9851993       0.99619829      -0.729727295      0.99619829      -0.729727295      0.0132681389     72.9851992      
 2.92892579       0.0133882402     73.100536        0.996190495     -0.736790929      0.996190495     -0.736790929      0.0133882402     73.100536       
 2.95821505       0.0135095698     73.214647        0.996182583     -0.743922712      0.996182583     -0.743922712      0.0135095697     73.2146467      
 2.9877972        0.0136321369     73.3275663       0.996174544     -0.751123303      0.996174544     -0.751123303      0.0136321369     73.3275663      
 3.01767517       0.0137559556     73.4392615       0.996166387     -0.758393354      0.996166387     -0.758393354      0.0137559555     73.4392613      
 3.04785192       0.0138810345     73.5497755       0.996158099     -0.765733537      0.996158099     -0.765733537      0.0138810345     73.5497755      
 3.07833044       0.0140073875     73.6590847       0.996149686     -0.773144521      0.996149686     -0.773144521      0.0140073874     73.6590846      
 3.10911375       0.014135025      73.7672105       0.996141143     -0.780626984      0.996141143     -0.780626984      0.014135025      73.7672104      
 3.14020489       0.0142639582     73.8741668       0.996132466     -0.788181616      0.996132466     -0.788181616      0.0142639583     73.874167       
 3.17160693       0.0143942016     73.9799269       0.99612366      -0.795809098      0.99612366      -0.795809098      0.0143942015     73.9799267      
 3.203323         0.0145257641     74.0845351       0.996114713     -0.803510139      0.996114713     -0.803510139      0.0145257641     74.0845351      
 3.23535623       0.0146586601     74.1879676       0.996105632     -0.811285435      0.996105632     -0.811285435      0.0146586601     74.1879675      
 3.2677098        0.0147929001     74.2902542       0.996096407     -0.819135703      0.996096407     -0.819135703      0.0147929001     74.2902543      
 3.30038689       0.0149284976     74.391385        0.996087042     -0.827061657      0.996087042     -0.827061657      0.0149284977     74.3913851      
 3.33339076       0.0150654661     74.4913546       0.996077535     -0.835064018      0.996077535     -0.835064018      0.015065466      74.4913543      
 3.36672467       0.0152038149     74.5902089       0.996067876     -0.843143529      0.996067876     -0.843143529      0.0152038149     74.590209       
 3.40039192       0.01534356       74.6879135       0.996058071     -0.851300916      0.996058071     -0.851300916      0.01534356       74.6879134      
 3.43439584       0.015484713      74.7844903       0.996048115     -0.85953693       0.996048115     -0.85953693       0.0154847128     74.7844901      
 3.4687398        0.0156272864     74.8799493       0.996038004     -0.867852322      0.996038004     -0.867852322      0.0156272863     74.8799491      
 3.50342719       0.0157712928     74.9743038       0.996027733     -0.876247856      0.996027733     -0.876247856      0.0157712928     74.9743039      
 3.53846147       0.0159167473     75.0675362       0.996017307     -0.88472429       0.996017307     -0.88472429       0.0159167474     75.0675363      
