# MHz           S          MA           R         50
!-----------------------------------------------------------------------------
!Freq             MagS11           AngS11           MagS21           AngS21           MagS12           AngS12           MagS22           AngS22
 1                0.00889480889    56.1903331       0.995078054     -0.425549363      0.995078054     -0.425549363      0.0088948089     56.1903333      
 1.01             0.00895596874    56.4307338       0.995075824     -0.429676619      0.995075824     -0.429676619      0.00895596875    56.430734       
 1.0201           0.00901788683    56.6700649       0.995073556     -0.433843845      0.995073556     -0.433843845      0.00901788688    56.6700657      
 1.030301         0.00908057438    56.9082732       0.995071258     -0.438051423      0.995071258     -0.438051423      0.0090805744     56.9082735      
 1.04060401       0.00914403629    57.145365        0.995068924     -0.442299744      0.995068924     -0.442299744      0.00914403628    57.1453648      
 1.05101005       0.0092082771     57.3813512       0.995066549     -0.446589205      0.995066549     -0.446589205      0.00920827712    57.3813514      
 1.06152015       0.00927330668    57.6161935       0.995064138     -0.450920201      0.995064138     -0.450920201      0.00927330673    57.616194       
 1.07213535       0.00933913382    57.8498647       0.995061692     -0.455293131      0.995061692     -0.455293131      0.00933913383    57.8498648      
 1.08285671       0.00940576362    58.0823728       0.995059207     -0.459708403      0.995059207     -0.459708403      0.00940576361    58.0823728      
 1.09368527       0.00947320355    58.3137047       0.995056682     -0.464166425      0.995056682     -0.464166425      0.00947320354    58.3137046      
 1.10462213       0.00954146171    58.543842        0.995054118     -0.468667611      0.995054118     -0.468667611      0.00954146169    58.5438418      
 1.11566835       0.00961054379    58.7727904       0.995051511     -0.473212377      0.995051511     -0.473212377      0.00961054381    58.7727906      
 1.12682503       0.0096804607     59.0005063       0.995048866     -0.477801143      0.995048866     -0.477801143      0.00968046071    59.0005063      
 1.13809328       0.00975121707    59.2270074       0.995046178     -0.482434336      0.995046178     -0.482434336      0.0097512171     59.2270077      
 1.14947421       0.0098228244     59.4522466       0.995043452     -0.487112381      0.995043452     -0.487112381      0.00982282435    59.4522461      
 1.16096896       0.009895285      59.6762648       0.995040678     -0.491835716      0.995040678     -0.491835716      0.009895285      59.6762647      
 1.17257864       0.00996861082    59.8990129       0.995037863     -0.496604775      0.995037863     -0.496604775      0.0099686108     59.8990127      
 1.18430443       0.0100428084     60.1204934       0.995035004     -0.501420001      0.995035004     -0.501420001      0.0100428084     60.1204931      
 1.19614748       0.0101178836     60.3407167       0.995032096     -0.506281841      0.995032096     -0.506281841      0.0101178837     60.340717       
 1.20810895       0.0101938499     60.5596224       0.995029149     -0.511190739      0.995029149     -0.511190739      0.0101938498     60.5596221      
 1.22019004       0.0102707083     60.7772668       0.995026148     -0.516147158      0.995026148     -0.516147158      0.0102707084     60.7772672      
 1.23239194       0.0103484725     60.9935908       0.995023105     -0.52115155       0.995023105     -0.52115155       0.0103484726     60.9935912      
 1.24471586       0.0104271505     61.2085864       0.995020017     -0.526204378      0.995020017     -0.526204378      0.0104271505     61.2085861      
 1.25716302       0.0105067454     61.4222961       0.995016874     -0.531306116      0.995016874     -0.531306116      0.0105067454     61.4222964      
 1.26973465       0.0105872699     61.6346702       0.995013683     -0.53645723       0.995013683     -0.53645723       0.0105872699     61.6346706      
 1.282432         0.0106687322     61.8457025       0.995010444     -0.541658198      0.995010444     -0.541658198      0.0106687323     61.8457028      
 1.29525631       0.0107511402     62.0553938       0.995007155     -0.5469095        0.995007155     -0.5469095        0.0107511402     62.0553938      
 1.30820888       0.0108344996     62.2637623       0.995003809     -0.552211627      0.995003809     -0.552211627      0.0108344997     62.2637628      
 1.32129097       0.0109188246     62.4707507       0.995000417     -0.557565061      0.995000417     -0.557565061      0.0109188246     62.4707507      
 1.33450388       0.0110041178     62.6764095       0.994996966     -0.562970306      0.994996966     -0.562970306      0.0110041178     62.67641        
 1.34784892       0.0110903924     62.8806904       0.994993464     -0.568427855      0.994993464     -0.568427855      0.0110903925     62.8806907      
 1.3613274        0.0111776554     63.0836077       0.994989906     -0.573938215      0.994989906     -0.573938215      0.0111776554     63.0836079      
 1.37494068       0.0112659153     63.285158        0.99498629      -0.579501897      0.99498629      -0.579501897      0.0112659153     63.2851584      
 1.38869009       0.0113551818     63.4853302       0.994982619     -0.585119413      0.994982619     -0.585119413      0.0113551819     63.4853307      
 1.40257699       0.0114454648     63.6841127       0.994978891     -0.590791283      0.994978891     -0.590791283      0.0114454648     63.6841128      
 1.41660276       0.0115367702     63.8815316       0.994975101     -0.596518033      0.994975101     -0.596518033      0.0115367703     63.8815322      
 1.43076878       0.0116291117     64.0775412       0.994971255     -0.602300188      0.994971255     -0.602300188      0.0116291117     64.0775414      
 1.44507647       0.0117224958     64.2721625       0.994967349     -0.608138286      0.994967349     -0.608138286      0.0117224958     64.2721624      
 1.45952724       0.0118169298     64.4654147       0.994963375     -0.614032869      0.994963375     -0.614032869      0.0118169299     64.4654151      
 1.47412251       0.0119124269     64.6572567       0.994959342     -0.619984476      0.994959342     -0.619984476      0.011912427      64.6572571      
 1.48886373       0.0120089966     64.8476876       0.994955248     -0.625993657      0.994955248     -0.625993657      0.0120089966     64.8476876      
 1.50375237       0.0121066455     65.036733        0.994951086     -0.632060972      0.994951086     -0.632060972      0.0121066455     65.036733       
 1.51878989       0.0122053851     65.2243745       0.994946858     -0.638186979      0.994946858     -0.638186979      0.0122053851     65.2243745      
 1.53397779       0.0123052246     65.4106145       0.994942563     -0.644372243      0.994942563     -0.644372243      0.0123052246     65.4106146      
 1.54931757       0.0124061746     65.5954456       0.994938202     -0.650617336      0.994938202     -0.650617336      0.0124061746     65.5954456      
 1.56481075       0.0125082433     65.7788824       0.994933768     -0.656922836      0.994933768     -0.656922836      0.0125082434     65.7788828      
 1.58045885       0.0126114434     65.9608988       0.994929268     -0.663289321      0.994929268     -0.663289321      0.0126114434     65.960899       
 1.59626344       0.0127157829     66.1415141       0.994924695     -0.669717384      0.994924695     -0.669717384      0.012715783      66.1415143      
 1.61222608       0.0128212734     66.3207146       0.994920051     -0.676207614      0.994920051     -0.676207614      0.0128212734     66.3207147      
 1.62834834       0.0129279239     66.4985129       0.994915333     -0.682760613      0.994915333     -0.682760613      0.0129279239     66.4985129      
 1.64463182       0.013035745      66.6749066       0.994910539     -0.689376985      0.994910539     -0.689376985      0.0130357451     66.6749067      
 1.66107814       0.0131447478     66.8498901       0.994905669     -0.696057341      0.994905669     -0.696057341      0.0131447478     66.8498903      
 1.67768892       0.0132549418     67.0234745       0.994900721     -0.702802298      0.994900721     -0.702802298      0.0132549419     67.0234749      
 1.69446581       0.0133663408     67.1956302       0.9948957       -0.709612473      0.9948957       -0.709612473      0.0133663407     67.19563        
 1.71141047       0.0134789506     67.3664048       0.994890593     -0.716488503      0.994890593     -0.716488503      0.0134789507     67.366405       
 1.72852457       0.0135927864     67.53576         0.994885409     -0.723431015      0.994885409     -0.723431015      0.0135927864     67.5357599      
 1.74580982       0.0137078556     67.7037295       0.994880138     -0.730440656      0.994880138     -0.730440656      0.0137078557     67.7037298      
 1.76326792       0.0138241724     67.8702856       0.994874787     -0.737518066      0.994874787     -0.737518066      0.0138241725     67.8702857      
 1.7809006        0.0139417468     68.0354414       0.994869351     -0.744663901      0.994869351     -0.744663901      0.0139417468     68.0354414      
 1.7987096        0.0140605905     68.1991942       0.99486383      -0.751878817      0.99486383      -0.751878817      0.0140605904     68.1991939      
 1.8166967        0.0141807117     68.3615766       0.994858215     -0.759163487      0.994858215     -0.759163487      0.0141807117     68.3615769      
 1.83486367       0.0143021255     68.5225555       0.994852513     -0.766518575      0.994852513     -0.766518575      0.0143021257     68.522556       
 1.8532123        0.014424844      68.6821301       0.994846725     -0.773944758      0.994846725     -0.773944758      0.014424844      68.6821302      
 1.87174443       0.0145488763     68.8403267       0.994840841     -0.781442725      0.994840841     -0.781442725      0.0145488763     68.8403269      
 1.89046187       0.0146742358     68.9971323       0.994834866     -0.789013164      0.994834866     -0.789013164      0.0146742358     68.9971323      
 1.90936649       0.0148009341     69.152554        0.994828795     -0.796656774      0.994828795     -0.796656774      0.0148009341     69.1525538      
 1.92846015       0.0149289818     69.3066085       0.994822625     -0.804374261      0.994822625     -0.804374261      0.0149289818     69.3066086      
 1.94774475       0.0150583928     69.459281        0.994816358     -0.812166333      0.994816358     -0.812166333      0.0150583928     69.4592811      
 1.9672222        0.0151891792     69.6105765       0.994809992     -0.820033708      0.994809992     -0.820033708      0.0151891792     69.6105765      
 1.98689442       0.0153213523     69.7605094       0.994803522     -0.827977112      0.994803522     -0.827977112      0.0153213524     69.7605096      
 2.00676337       0.0154549256     69.9090733       0.99479695      -0.835997275      0.99479695      -0.835997275      0.0154549257     69.9090736      
 2.026831         0.0155899114     70.0562749       0.994790274     -0.844094935      0.994790274     -0.844094935      0.0155899115     70.0562753      
 2.04709931       0.0157263236     70.2021068       0.994783494     -0.852270836      0.994783494     -0.852270836      0.0157263237     70.2021068      
 2.06757031       0.0158641723     70.3465988       0.994776601     -0.860525736      0.994776601     -0.860525736      0.0158641725     70.3465991      
 2.08824601       0.0160034741     70.4897217       0.994769604     -0.868860387      0.994769604     -0.868860387      0.0160034741     70.4897215      
 2.10912847       0.0161442382     70.6315155       0.99476249      -0.877275564      0.99476249      -0.877275564      0.0161442382     70.6315156      
 2.13021975       0.0162864795     70.771968        0.994755261     -0.885772038      0.994755261     -0.885772038      0.0162864796     70.7719684      
 2.15152195       0.0164302132     70.9110667       0.994747922     -0.894350586      0.994747922     -0.894350586      0.0164302132     70.9110668      
 2.17303717       0.0165754506     71.0488373       0.994740464     -0.903012001      0.994740464     -0.903012001      0.0165754506     71.0488373      
 2.19476754       0.0167222055     71.1852813       0.994732886     -0.911757081      0.994732886     -0.911757081      0.0167222055     71.1852812      
 2.21671522       0.0168704914     71.3204052       0.994725185     -0.92058663       0.994725185     -0.92058663       0.0168704915     71.3204054      
 2.23888237       0.0170203234     71.4542041       0.994717362     -0.929501456      0.994717362     -0.929501456      0.0170203234     71.4542043      
 2.26127119       0.0171717148     71.5866873       0.994709414     -0.938502381      0.994709414     -0.938502381      0.0171717149     71.5866875      
 2.2838839        0.0173246802     71.7178561       0.994701341     -0.947590229      0.994701341     -0.947590229      0.0173246802     71.7178562      
 2.30672274       0.0174792327     71.8477254       0.994693136     -0.956765841      0.994693136     -0.956765841      0.0174792328     71.8477256      
 2.32978997       0.017635388      71.9762901       0.9946848       -0.966030055      0.9946848       -0.966030055      0.0176353881     71.9762903      
 2.35308787       0.0177931597     72.1035621       0.99467633      -0.975383724      0.99467633      -0.975383724      0.0177931599     72.1035623      
 2.37661875       0.0179525635     72.2295387       0.994667726     -0.984827705      0.994667726     -0.984827705      0.0179525636     72.2295389      
 2.40038494       0.0181136133     72.3542321       0.994658983     -0.994362868      0.994658983     -0.994362868      0.0181136134     72.3542324      
 2.42438879       0.0182763247     72.4776425       0.994650101     -1.00399009       0.994650101     -1.00399009       0.0182763247     72.4776426      
 2.44863267       0.0184407123     72.5997791       0.994641076     -1.01371024       0.994641076     -1.01371024       0.0184407124     72.5997792      
 2.473119         0.0186067914     72.7206474       0.994631905     -1.02352423       0.994631905     -1.02352423       0.0186067915     72.7206476      
 2.49785019       0.0187745781     72.8402472       0.994622589     -1.03343296       0.994622589     -1.03343296       0.0187745781     72.8402472      
 2.52282869       0.0189440872     72.9585897       0.994613122     -1.04343732       0.994613122     -1.04343732       0.0189440872     72.9585898      
 2.54805698       0.0191153346     73.0756786       0.994603503     -1.05353824       0.994603503     -1.05353824       0.0191153346     73.0756786      
 2.57353755       0.019288336      73.1915202       0.994593729     -1.06373665       0.994593729     -1.06373665       0.0192883361     73.1915203      
 2.59927293       0.0194631075     73.3061207       0.994583798     -1.07403348       0.994583798     -1.07403348       0.0194631077     73.306121       
 2.62526565       0.0196396666     73.419473        0.99457371      -1.08442967       0.99457371      -1.08442967       0.0196396666     73.4194729      
 2.65151831       0.0198180268     73.531607        0.994563455     -1.09492618       0.994563455     -1.09492618       0.0198180269     73.5316071      
 2.67803349       0.0199982078     73.6425015       0.994553041     -1.10552397       0.994553041     -1.10552397       0.0199982077     73.6425014      
 2.70481383       0.0201802227     73.75219         0.994542453     -1.11622401       0.994542453     -1.11622401       0.0201802229     73.7521902      
 2.73186197       0.0203640913     73.8606552       0.994531697     -1.12702728       0.994531697     -1.12702728       0.0203640914     73.8606555      
 2.75918059       0.0205498297     73.967908        0.99452077      -1.13793477       0.99452077      -1.13793477       0.0205498298     73.9679081      
 2.78677239       0.0207374542     74.0739626       0.994509664     -1.14894748       0.994509664     -1.14894748       0.0207374544     74.0739628      
 2.81464012       0.0209269837     74.1788092       0.994498384     -1.16006641       0.994498384     -1.16006641       0.0209269838     74.1788092      
 2.84278652       0.0211184341     74.2824687       0.994486919     -1.17129258       0.994486919     -1.17129258       0.0211184341     74.2824687      
 2.87121438       0.0213118228     74.3849458       0.994475267     -1.18262703       0.994475267     -1.18262703       0.021311823      74.384946       
 2.89992653       0.021507169      74.4862369       0.99446343      -1.19407079       0.99446343      -1.19407079       0.0215071692     74.486237       
 2.92892579       0.0217044903     74.5863498       0.994451402     -1.2056249        0.994451402     -1.2056249        0.0217044903     74.5863499      
 2.95821505       0.0219038042     74.6852953       0.99443918      -1.21729042       0.99443918      -1.21729042       0.0219038042     74.6852953      
 2.9877972        0.0221051293     74.7830762       0.99442676      -1.22906842       0.99442676      -1.22906842       0.0221051294     74.7830763      
 3.01767517       0.0223084846     74.879695        0.994414141     -1.24095998       0.994414141     -1.24095998       0.0223084845     74.879695       
 3.04785192       0.0225138877     74.9751647       0.994401317     -1.25296617       0.994401317     -1.25296617       0.0225138877     74.9751647      
 3.07833044       0.0227213581     75.0694864       0.994388286     -1.26508811       0.994388286     -1.26508811       0.0227213581     75.0694864      
 3.10911375       0.0229309145     75.1626686       0.994375043     -1.27732689       0.994375043     -1.27732689       0.0229309146     75.1626687      
 3.14020489       0.0231425762     75.2547154       0.994361586     -1.28968363       0.994361586     -1.28968363       0.0231425764     75.2547156      
 3.17160693       0.0233563637     75.3456238       0.994347914     -1.30215946       0.994347914     -1.30215946       0.0233563638     75.3456238      
 3.203323         0.0235722943     75.4354176       0.994334017     -1.31475552       0.994334017     -1.31475552       0.0235722946     75.4354179      
 3.23535623       0.0237903902     75.5240828       0.9943199       -1.32747296       0.9943199       -1.32747296       0.0237903904     75.524083       
 3.2677098        0.0240106705     75.6116323       0.994305555     -1.34031293       0.994305555     -1.34031293       0.0240106705     75.6116322      
 3.30038689       0.024233154      75.6980812       0.994290974     -1.35327662       0.994290974     -1.35327662       0.0242331541     75.6980813      
 3.33339076       0.0244578629     75.7834217       0.99427616      -1.3663652        0.99427616      -1.3663652        0.0244578628     75.7834216      
 3.36672467       0.024684816      75.8676711       0.994261103     -1.37957986       0.994261103     -1.37957986       0.024684816      75.8676711      
 3.40039192       0.024914036      75.950821        0.994245805     -1.39292181       0.994245805     -1.39292181       0.0249140358     75.9508208      
 3.43439584       0.0251455419     76.032891        0.994230258     -1.40639226       0.994230258     -1.40639226       0.0251455417     76.0328909      
 3.4687398        0.0253793551     76.1138844       0.994214456     -1.41999245       0.994214456     -1.41999245       0.0253793552     76.1138845      
 3.50342719       0.0256154984     76.1937951       0.994198401     -1.43372361       0.994198401     -1.43372361       0.0256154984     76.1937951      
 3.53846147       0.0258539926     76.2726351       0.994182087     -1.44758698       0.994182087     -1.44758698       0.0258539924     76.2726349      
