# MHz           S          MA           R         50
!-----------------------------------------------------------------------------
!Freq             MagS11           AngS11           MagS21           AngS21           MagS12           AngS12           MagS22           AngS22
 1                0.00275392322    55.9641247       0.9984612       -0.130958689      0.9984612       -0.130958689      0.00275392323    55.9641252      
 1.01             0.00277242292    56.2058283       0.998460608     -0.132212963      0.998460608     -0.132212963      0.00277242291    56.2058281      
 1.0201           0.00279114984    56.4465525       0.998460005     -0.133479224      0.998460005     -0.133479224      0.00279114983    56.446552       
 1.030301         0.00281010418    56.6863421       0.998459389     -0.134757585      0.998459389     -0.134757585      0.00281010418    56.6863423      
 1.04060401       0.00282929261    56.9250429       0.998458766     -0.136048161      0.998458766     -0.136048161      0.00282929262    56.9250431      
 1.05101005       0.00284871655    57.1626635       0.998458137     -0.137351068      0.998458137     -0.137351068      0.00284871654    57.1626634      
 1.06152015       0.00286837481    57.3992931       0.998457494     -0.138666425      0.998457494     -0.138666425      0.00286837481    57.3992934      
 1.07213535       0.00288827427    57.6347728       0.998456847     -0.139994349      0.998456847     -0.139994349      0.00288827426    57.6347727      
 1.08285671       0.00290841508    57.8691524       0.998456191     -0.14133496       0.998456191     -0.14133496       0.00290841507    57.8691517      
 1.09368527       0.00292879489    58.1025611       0.998455517     -0.142688381      0.998455517     -0.142688381      0.0029287949     58.1025614      
 1.10462213       0.00294942363    58.3347471       0.99845484      -0.144054731      0.99845484      -0.144054731      0.00294942363    58.334747       
 1.11566835       0.00297029883    58.5658444       0.998454152     -0.145434135      0.998454152     -0.145434135      0.00297029883    58.5658444      
 1.12682503       0.00299142424    58.7957949       0.998453454     -0.146826716      0.998453454     -0.146826716      0.00299142423    58.7957947      
 1.13809328       0.00301280261    59.0245718       0.998452747     -0.148232601      0.998452747     -0.148232601      0.0030128026     59.0245712      
 1.14947421       0.00303443191    59.2522999       0.998452024     -0.149651917      0.998452024     -0.149651917      0.00303443192    59.2523001      
 1.16096896       0.00305632269    59.4787098       0.998451299     -0.151084789      0.998451299     -0.151084789      0.00305632267    59.4787091      
 1.17257864       0.0030784673     59.7041043       0.998450554     -0.15253135       0.998450554     -0.15253135       0.00307846731    59.7041046      
 1.18430443       0.00310087597    59.9282253       0.998449803     -0.153991727      0.998449803     -0.153991727      0.00310087598    59.9282256      
 1.19614748       0.0031235486     60.1511403       0.998449042     -0.155466054      0.998449042     -0.155466054      0.00312354861    60.1511404      
 1.20810895       0.00314648699    60.3728585       0.998448269     -0.156954462      0.998448269     -0.156954462      0.00314648699    60.3728585      
 1.22019004       0.0031696949     60.5933274       0.998447487     -0.158457086      0.998447487     -0.158457086      0.00316969488    60.5933268      
 1.23239194       0.0031931723     60.8126156       0.998446691     -0.159974061      0.998446691     -0.159974061      0.00319317228    60.812615       
 1.24471586       0.00321692258    61.0306843       0.998445883     -0.161505525      0.998445883     -0.161505525      0.00321692257    61.0306839      
 1.25716302       0.00324094964    61.24748         0.998445065     -0.163051614      0.998445065     -0.163051614      0.00324094961    61.2474792      
 1.26973465       0.00326525243    61.4631064       0.998444231     -0.16461247       0.998444231     -0.16461247       0.00326525243    61.4631063      
 1.282432         0.00328983663    61.6774552       0.998443386     -0.16618823       0.998443386     -0.16618823       0.00328983663    61.6774554      
 1.29525631       0.00331470498    61.8905115       0.99844253      -0.167779038      0.99844253      -0.167779038      0.00331470498    61.8905115      
 1.30820888       0.00333986053    62.102252        0.998441666     -0.169385037      0.998441666     -0.169385037      0.0033398605     62.1022513      
 1.32129097       0.00336530156    62.3128065       0.998440783     -0.171006371      0.998440783     -0.171006371      0.00336530155    62.3128061      
 1.33450388       0.00339103353    62.5220772       0.998439888     -0.172643187      0.998439888     -0.172643187      0.00339103352    62.5220771      
 1.34784892       0.00341706019    62.7300202       0.998438982     -0.174295632      0.998438982     -0.174295632      0.00341706017    62.7300198      
 1.3613274        0.00344338183    62.9367052       0.998438062     -0.175963854      0.998438062     -0.175963854      0.00344338182    62.9367049      
 1.37494068       0.00347000231    63.1420878       0.998437129     -0.177648004      0.998437129     -0.177648004      0.00347000228    63.1420873      
 1.38869009       0.00349692217    63.3462304       0.998436178     -0.179348234      0.998436178     -0.179348234      0.00349692217    63.3462305      
 1.40257699       0.00352414853    63.548986        0.998435219     -0.181064695      0.998435219     -0.181064695      0.00352414851    63.5489857      
 1.41660276       0.00355167864    63.7505257       0.99843424      -0.182797545      0.99843424      -0.182797545      0.00355167865    63.750526       
 1.43076878       0.00357951994    63.9506933       0.998433251     -0.184546936      0.998433251     -0.184546936      0.00357951995    63.9506935      
 1.44507647       0.00360767248    64.1495724       0.998432246     -0.186313027      0.998432246     -0.186313027      0.0036076725     64.1495727      
 1.45952724       0.00363614138    64.3470835       0.99843123      -0.188095977      0.99843123      -0.188095977      0.00363614137    64.3470834      
 1.47412251       0.00366492686    64.5433062       0.998430197     -0.189895947      0.998430197     -0.189895947      0.00366492684    64.5433058      
 1.48886373       0.00369403212    64.7382255       0.998429147     -0.191713099      0.998429147     -0.191713099      0.0036940321     64.7382252      
 1.50375237       0.00372346099    64.9318065       0.998428084     -0.193547595      0.998428084     -0.193547595      0.00372346096    64.9318061      
 1.51878989       0.00375321481    65.1240964       0.998427002     -0.195399602      0.998427002     -0.195399602      0.0037532148     65.1240963      
 1.53397779       0.00378329892    65.3150139       0.998425908     -0.197269284      0.998425908     -0.197269284      0.00378329889    65.3150134      
 1.54931757       0.00381371332    65.504651        0.998424795     -0.199156812      0.998424795     -0.199156812      0.00381371331    65.5046508      
 1.56481075       0.0038444632     65.6929339       0.998423667     -0.201062353      0.998423667     -0.201062353      0.00384446318    65.6929337      
 1.58045885       0.00387555128    65.8798686       0.998422524     -0.20298608       0.998422524     -0.20298608       0.00387555124    65.8798681      
 1.59626344       0.00390697804    66.0655356       0.998421359     -0.204928167      0.998421359     -0.204928167      0.00390697804    66.0655355      
 1.61222608       0.00393874978    66.2498279       0.998420181     -0.206888786      0.998420181     -0.206888786      0.00393874977    66.2498279      
 1.62834834       0.00397086832    66.4327841       0.998418986     -0.208868115      0.998418986     -0.208868115      0.00397086831    66.4327839      
 1.64463182       0.00400333625    66.6144198       0.998417772     -0.210866331      0.998417772     -0.210866331      0.00400333623    66.6144196      
 1.66107814       0.00403615766    66.7947021       0.998416543     -0.212883614      0.998416543     -0.212883614      0.00403615763    66.7947016      
 1.67768892       0.00406933446    66.9736711       0.998415294     -0.214920146      0.998415294     -0.214920146      0.00406933443    66.9736706      
 1.69446581       0.00410286951    67.1513364       0.998414024     -0.216976109      0.998414024     -0.216976109      0.00410286949    67.1513362      
 1.71141047       0.00413676658    67.3276794       0.998412736     -0.219051688      0.998412736     -0.219051688      0.00413676659    67.3276795      
 1.72852457       0.00417103036    67.5026523       0.998411432     -0.22114707       0.998411432     -0.22114707       0.00417103036    67.5026522      
 1.74580982       0.00420566285    67.6762971       0.998410109     -0.223262442      0.998410109     -0.223262442      0.00420566283    67.6762968      
 1.76326792       0.00424066609    67.8486539       0.998408763     -0.225397996      0.998408763     -0.225397996      0.0042406661     67.848654       
 1.7809006        0.00427604477    68.0196795       0.998407398     -0.227553923      0.998407398     -0.227553923      0.00427604479    68.0196797      
 1.7987096        0.00431180322    68.1893422       0.998406017     -0.229730415      0.998406017     -0.229730415      0.00431180321    68.1893421      
 1.8166967        0.00434794378    68.3576774       0.998404616     -0.231927669      0.998404616     -0.231927669      0.00434794374    68.3576769      
 1.83486367       0.0043844673     68.5247688       0.998403188     -0.234145884      0.998403188     -0.234145884      0.0043844673     68.5247688      
 1.8532123        0.00442138026    68.6905194       0.998401742     -0.236385256      0.998401742     -0.236385256      0.00442138027    68.6905196      
 1.87174443       0.00445868647    68.8549196       0.998400277     -0.238645987      0.998400277     -0.238645987      0.00445868646    68.8549195      
 1.89046187       0.00449638679    69.018057        0.998398787     -0.240928282      0.998398787     -0.240928282      0.0044963868     69.0180571      
 1.90936649       0.00453448752    69.1798436       0.998397279     -0.243232343      0.998397279     -0.243232343      0.00453448751    69.1798435      
 1.92846015       0.00457299095    69.3403232       0.998395748     -0.245558379      0.998395748     -0.245558379      0.00457299091    69.3403229      
 1.94774475       0.00461189868    69.4995624       0.99839419      -0.247906598      0.99839419      -0.247906598      0.00461189869    69.4995625      
 1.9672222        0.00465121793    69.6574477       0.998392614     -0.250277211      0.998392614     -0.250277211      0.00465121792    69.6574476      
 1.98689442       0.0046909506     69.8140384       0.998391015     -0.252670429      0.998391015     -0.252670429      0.00469095057    69.8140381      
 2.00676337       0.00473109964    69.9693619       0.99838939      -0.25508647       0.99838939      -0.25508647       0.00473109961    69.9693617      
 2.026831         0.00477166904    70.1234125       0.998387739     -0.257525549      0.998387739     -0.257525549      0.00477166904    70.1234126      
 2.04709931       0.00481266439    70.2761341       0.998386069     -0.259987884      0.998386069     -0.259987884      0.00481266436    70.2761338      
 2.06757031       0.00485408725    70.4276026       0.998384372     -0.262473697      0.998384372     -0.262473697      0.00485408722    70.4276023      
 2.08824601       0.00489594183    70.577809        0.998382648     -0.264983211      0.998382648     -0.264983211      0.00489594182    70.5778089      
 2.10912847       0.00493823329    70.726715        0.998380902     -0.26751665       0.998380902     -0.26751665       0.00493823326    70.7267148      
 2.13021975       0.00498096478    70.8743489       0.99837913      -0.270074243      0.99837913      -0.270074243      0.00498096473    70.8743485      
 2.15152195       0.00502413914    71.02075         0.99837733      -0.272656218      0.99837733      -0.272656218      0.0050241391     71.0207497      
 2.17303717       0.00506776174    71.1658771       0.998375504     -0.275262808      0.998375504     -0.275262808      0.00506776169    71.1658767      
 2.19476754       0.00511183567    71.3097639       0.998373651     -0.277894245      0.998373651     -0.277894245      0.00511183564    71.3097637      
 2.21671522       0.00515636528    71.452405        0.998371769     -0.280550766      0.998371769     -0.280550766      0.00515636527    71.4524049      
 2.23888237       0.00520135521    71.5937872       0.998369862     -0.283232608      0.998369862     -0.283232608      0.0052013552     71.5937871      
 2.26127119       0.00524680907    71.7339312       0.998367926     -0.285940012      0.998367926     -0.285940012      0.00524680906    71.7339311      
 2.2838839        0.00529273146    71.872828        0.998365963     -0.288673221      0.998365963     -0.288673221      0.00529273142    71.8728277      
 2.30672274       0.00533912503    72.0105311       0.998363967     -0.29143248       0.998363967     -0.29143248       0.00533912504    72.0105311      
 2.32978997       0.00538599704    72.1469496       0.998361948     -0.294218035      0.998361948     -0.294218035      0.00538599698    72.1469492      
 2.35308787       0.00543334829    72.2821992       0.998359895     -0.297030138      0.998359895     -0.297030138      0.00543334825    72.2821989      
 2.37661875       0.00548118507    72.4162222       0.998357812     -0.299869038      0.998357812     -0.299869038      0.00548118503    72.416222       
 2.40038494       0.00552951026    72.5490705       0.998355695     -0.302734993      0.998355695     -0.302734993      0.00552951028    72.5490707      
 2.42438879       0.00557833029    72.6806847       0.99835355      -0.305628256      0.99835355      -0.305628256      0.00557833032    72.6806849      
 2.44863267       0.00562764914    72.8110853       0.998351375     -0.308549087      0.998351375     -0.308549087      0.00562764914    72.8110853      
 2.473119         0.00567747118    72.9402806       0.998349169     -0.311497748      0.998349169     -0.311497748      0.00567747114    72.9402804      
 2.49785019       0.00572779919    73.0683323       0.998346926     -0.314474505      0.998346926     -0.314474505      0.00572779918    73.0683322      
 2.52282869       0.00577863951    73.1951891       0.998344651     -0.317479622      0.998344651     -0.317479622      0.00577863951    73.1951891      
 2.54805698       0.00582999681    73.320855        0.998342345     -0.320513368      0.998342345     -0.320513368      0.00582999678    73.3208549      
 2.57353755       0.00588187481    73.4453653       0.998340003     -0.323576016      0.998340003     -0.323576016      0.00588187478    73.4453652      
 2.59927293       0.00593427868    73.5687106       0.998337626     -0.326667839      0.998337626     -0.326667839      0.00593427866    73.5687105      
 2.62526565       0.00598721302    73.6909013       0.998335214     -0.329789115      0.998335214     -0.329789115      0.00598721302    73.6909013      
 2.65151831       0.00604068281    73.8119377       0.998332767     -0.332940122      0.998332767     -0.332940122      0.00604068281    73.8119377      
 2.67803349       0.00609469361    73.9318023       0.998330286     -0.336121141      0.998330286     -0.336121141      0.00609469356    73.931802       
 2.70481383       0.00614924843    74.05056         0.998327765     -0.33933246       0.998327765     -0.33933246       0.00614924841    74.0505599      
 2.73186197       0.00620435329    74.1681827       0.998325207     -0.342574364      0.998325207     -0.342574364      0.00620435329    74.1681827      
 2.75918059       0.00626001402    74.2846494       0.998322614     -0.345847142      0.998322614     -0.345847142      0.00626001398    74.2846492      
 2.78677239       0.00631623416    74.4000127       0.99831998      -0.349151088      0.99831998      -0.349151088      0.00631623413    74.4000125      
 2.81464012       0.00637301934    74.5142609       0.998317308     -0.352486499      0.998317308     -0.352486499      0.00637301932    74.5142607      
 2.84278652       0.00643037474    74.6273985       0.998314595     -0.35585367       0.998314595     -0.35585367       0.00643037473    74.6273984      
 2.87121438       0.00648830566    74.7394277       0.998311843     -0.359252904      0.998311843     -0.359252904      0.00648830564    74.7394276      
 2.89992653       0.00654681736    74.8503527       0.998309052     -0.362684505      0.998309052     -0.362684505      0.00654681733    74.8503526      
 2.92892579       0.00660591473    74.9601919       0.998306218     -0.366148779      0.998306218     -0.366148779      0.0066059147     74.9601918      
 2.95821505       0.00666560351    75.0689385       0.998303343     -0.369646035      0.998303343     -0.369646035      0.00666560347    75.0689383      
 2.9877972        0.00672588879    75.1766075       0.998300425     -0.373176587      0.998300425     -0.373176587      0.00672588873    75.1766073      
 3.01767517       0.00678677544    75.2832212       0.998297461     -0.37674075       0.998297461     -0.37674075       0.00678677543    75.2832211      
 3.04785192       0.00684827023    75.3887468       0.998294457     -0.380338842      0.998294457     -0.380338842      0.0068482702     75.3887467      
 3.07833044       0.0069103778     75.4932178       0.998291407     -0.383971185      0.998291407     -0.383971185      0.00691037777    75.4932177      
 3.10911375       0.00697310446    75.5966174       0.998288313     -0.387638102      0.998288313     -0.387638102      0.00697310439    75.5966172      
 3.14020489       0.00703645411    75.6990054       0.99828517      -0.391339923      0.99828517      -0.391339923      0.00703645411    75.6990054      
 3.17160693       0.00710043439    75.8003282       0.998281982     -0.395076976      0.998281982     -0.395076976      0.00710043439    75.8003282      
 3.203323         0.00716505043    75.9006107       0.998278748     -0.398849596      0.998278748     -0.398849596      0.00716505043    75.9006107      
 3.23535623       0.00723030828    75.9998518       0.998275467     -0.402658119      0.998275467     -0.402658119      0.00723030823    75.9998516      
 3.2677098        0.00729621282    76.0980867       0.998272135     -0.406502886      0.998272135     -0.406502886      0.00729621279    76.0980866      
 3.30038689       0.00736277094    76.1952924       0.998268755     -0.41038424       0.998268755     -0.41038424       0.00736277089    76.1952923      
 3.33339076       0.00742998753    76.2915073       0.998265323     -0.414302527      0.998265323     -0.414302527      0.00742998754    76.2915073      
 3.36672467       0.00749787031    76.3866869       0.998261843     -0.418258095      0.998261843     -0.418258095      0.00749787027    76.3866868      
 3.40039192       0.00756642425    76.4808708       0.998258311     -0.422251299      0.998258311     -0.422251299      0.00756642417    76.4808706      
 3.43439584       0.00763565489    76.5740824       0.998254724     -0.426282496      0.998254724     -0.426282496      0.00763565486    76.5740823      
 3.4687398        0.00770556982    76.6662873       0.998251086     -0.430352043      0.998251086     -0.430352043      0.00770556977    76.6662872      
 3.50342719       0.00777617395    76.7575313       0.998247391     -0.434460305      0.998247391     -0.434460305      0.00777617395    76.7575313      
 3.53846147       0.00784747525    76.8477719       0.998243646     -0.438607646      0.998243646     -0.438607646      0.00784747519    76.8477717      
