!Murata Part Number: GCM033R11A103KA01
!These Parameters are Measured in Series Mode Connection
!Data Generated on Sep 23, 2020
!       o--ll--o
!Port1            Port2
!       o------o
!Operation Temp=25[degC], DC Bias Voltage=0[V]
!Freq. Start=100[Hz] Stop=6[GHz] 401[Steps]
# Hz S RI R 50
!Freq.(Hz) S11(Real) S11(Imag) S21(Real) S21(Imag) S12(Real) S12(Imag) S22(Real) S22(Imag)
100 0.9999963 -0.0006153 0.0000037 0.0006153 0.0000037 0.0006153 0.9999963 -0.0006153
105 0.9999962 -0.0006433 0.0000038 0.0006433 0.0000038 0.0006433 0.9999962 -0.0006433
109 0.9999960 -0.0006727 0.0000040 0.0006727 0.0000040 0.0006727 0.9999960 -0.0006727
114 0.9999958 -0.0007034 0.0000042 0.0007034 0.0000042 0.0007034 0.9999958 -0.0007034
120 0.9999955 -0.0007355 0.0000045 0.0007355 0.0000045 0.0007355 0.9999955 -0.0007355
125 0.9999953 -0.0007691 0.0000047 0.0007691 0.0000047 0.0007691 0.9999953 -0.0007691
131 0.9999951 -0.0008042 0.0000049 0.0008042 0.0000049 0.0008042 0.9999951 -0.0008042
137 0.9999948 -0.0008409 0.0000052 0.0008409 0.0000052 0.0008409 0.9999948 -0.0008409
143 0.9999946 -0.0008792 0.0000054 0.0008792 0.0000054 0.0008792 0.9999946 -0.0008792
150 0.9999943 -0.0009194 0.0000057 0.0009194 0.0000057 0.0009194 0.9999943 -0.0009194
156 0.9999940 -0.0009613 0.0000060 0.0009613 0.0000060 0.0009613 0.9999940 -0.0009613
164 0.9999936 -0.0010052 0.0000064 0.0010052 0.0000064 0.0010052 0.9999936 -0.0010052
171 0.9999933 -0.0010511 0.0000067 0.0010511 0.0000067 0.0010511 0.9999933 -0.0010511
179 0.9999929 -0.0010990 0.0000071 0.0010990 0.0000071 0.0010990 0.9999929 -0.0010990
187 0.9999925 -0.0011492 0.0000075 0.0011492 0.0000075 0.0011492 0.9999925 -0.0011492
196 0.9999921 -0.0012016 0.0000079 0.0012016 0.0000079 0.0012016 0.9999921 -0.0012016
205 0.9999917 -0.0012564 0.0000083 0.0012564 0.0000083 0.0012564 0.9999917 -0.0012564
214 0.9999912 -0.0013138 0.0000088 0.0013138 0.0000088 0.0013138 0.9999912 -0.0013138
224 0.9999907 -0.0013737 0.0000093 0.0013737 0.0000093 0.0013737 0.9999907 -0.0013737
234 0.9999902 -0.0014364 0.0000098 0.0014364 0.0000098 0.0014364 0.9999902 -0.0014364
245 0.9999896 -0.0015019 0.0000104 0.0015019 0.0000104 0.0015019 0.9999896 -0.0015019
256 0.9999891 -0.0015705 0.0000109 0.0015705 0.0000109 0.0015705 0.9999891 -0.0015705
268 0.9999884 -0.0016421 0.0000116 0.0016421 0.0000116 0.0016421 0.9999884 -0.0016421
280 0.9999878 -0.0017170 0.0000122 0.0017170 0.0000122 0.0017170 0.9999878 -0.0017170
293 0.9999871 -0.0017954 0.0000129 0.0017954 0.0000129 0.0017954 0.9999871 -0.0017954
306 0.9999863 -0.0018773 0.0000137 0.0018773 0.0000137 0.0018773 0.9999863 -0.0018773
320 0.9999855 -0.0019629 0.0000145 0.0019629 0.0000145 0.0019629 0.9999855 -0.0019629
335 0.9999847 -0.0020525 0.0000153 0.0020525 0.0000153 0.0020525 0.9999847 -0.0020525
350 0.9999838 -0.0021461 0.0000162 0.0021461 0.0000162 0.0021461 0.9999838 -0.0021461
366 0.9999829 -0.0022441 0.0000171 0.0022441 0.0000171 0.0022441 0.9999829 -0.0022441
383 0.9999818 -0.0023465 0.0000182 0.0023465 0.0000182 0.0023465 0.9999818 -0.0023465
401 0.9999807 -0.0024535 0.0000193 0.0024535 0.0000193 0.0024535 0.9999807 -0.0024535
419 0.9999796 -0.0025655 0.0000204 0.0025655 0.0000204 0.0025655 0.9999796 -0.0025655
438 0.9999783 -0.0026825 0.0000217 0.0026825 0.0000217 0.0026825 0.9999783 -0.0026825
458 0.9999770 -0.0028049 0.0000230 0.0028049 0.0000230 0.0028049 0.9999770 -0.0028049
479 0.9999756 -0.0029329 0.0000244 0.0029329 0.0000244 0.0029329 0.9999756 -0.0029329
501 0.9999741 -0.0030668 0.0000259 0.0030668 0.0000259 0.0030668 0.9999741 -0.0030668
524 0.9999724 -0.0032067 0.0000276 0.0032067 0.0000276 0.0032067 0.9999724 -0.0032067
548 0.9999707 -0.0033530 0.0000293 0.0033530 0.0000293 0.0033530 0.9999707 -0.0033530
573 0.9999688 -0.0035060 0.0000312 0.0035060 0.0000312 0.0035060 0.9999688 -0.0035060
600 0.9999667 -0.0036660 0.0000333 0.0036660 0.0000333 0.0036660 0.9999667 -0.0036660
627 0.9999646 -0.0038333 0.0000354 0.0038333 0.0000354 0.0038333 0.9999646 -0.0038333
656 0.9999622 -0.0040082 0.0000378 0.0040082 0.0000378 0.0040082 0.9999622 -0.0040082
686 0.9999597 -0.0041910 0.0000403 0.0041910 0.0000403 0.0041910 0.9999597 -0.0041910
717 0.9999570 -0.0043822 0.0000430 0.0043822 0.0000430 0.0043822 0.9999570 -0.0043822
750 0.9999541 -0.0045822 0.0000459 0.0045822 0.0000459 0.0045822 0.9999541 -0.0045822
784 0.9999510 -0.0047912 0.0000490 0.0047912 0.0000490 0.0047912 0.9999510 -0.0047912
820 0.9999476 -0.0050097 0.0000524 0.0050097 0.0000524 0.0050097 0.9999476 -0.0050097
858 0.9999440 -0.0052383 0.0000560 0.0052383 0.0000560 0.0052383 0.9999440 -0.0052383
897 0.9999402 -0.0054772 0.0000598 0.0054772 0.0000598 0.0054772 0.9999402 -0.0054772
938 0.9999360 -0.0057270 0.0000640 0.0057270 0.0000640 0.0057270 0.9999360 -0.0057270
981 0.9999315 -0.0059882 0.0000685 0.0059882 0.0000685 0.0059882 0.9999315 -0.0059882
1026 0.9999267 -0.0062614 0.0000733 0.0062614 0.0000733 0.0062614 0.9999267 -0.0062614
1073 0.9999216 -0.0065469 0.0000784 0.0065469 0.0000784 0.0065469 0.9999216 -0.0065469
1122 0.9999160 -0.0068455 0.0000840 0.0068455 0.0000840 0.0068455 0.9999160 -0.0068455
1174 0.9999100 -0.0071577 0.0000900 0.0071577 0.0000900 0.0071577 0.9999100 -0.0071577
1227 0.9999036 -0.0074842 0.0000964 0.0074842 0.0000964 0.0074842 0.9999036 -0.0074842
1283 0.9998967 -0.0078256 0.0001033 0.0078256 0.0001033 0.0078256 0.9998967 -0.0078256
1342 0.9998892 -0.0081825 0.0001108 0.0081825 0.0001108 0.0081825 0.9998892 -0.0081825
1404 0.9998811 -0.0085557 0.0001189 0.0085557 0.0001189 0.0085557 0.9998811 -0.0085557
1468 0.9998724 -0.0089459 0.0001276 0.0089459 0.0001276 0.0089459 0.9998724 -0.0089459
1535 0.9998630 -0.0093540 0.0001370 0.0093540 0.0001370 0.0093540 0.9998630 -0.0093540
1606 0.9998528 -0.0097807 0.0001472 0.0097807 0.0001472 0.0097807 0.9998528 -0.0097807
1679 0.9998418 -0.0102269 0.0001582 0.0102269 0.0001582 0.0102269 0.9998418 -0.0102269
1756 0.9998299 -0.0106935 0.0001701 0.0106935 0.0001701 0.0106935 0.9998299 -0.0106935
1836 0.9998171 -0.0111814 0.0001829 0.0111814 0.0001829 0.0111814 0.9998171 -0.0111814
1920 0.9998031 -0.0116915 0.0001969 0.0116915 0.0001969 0.0116915 0.9998031 -0.0116915
2008 0.9997879 -0.0122250 0.0002121 0.0122250 0.0002121 0.0122250 0.9997879 -0.0122250
2100 0.9997715 -0.0127828 0.0002285 0.0127828 0.0002285 0.0127828 0.9997715 -0.0127828
2196 0.9997536 -0.0133662 0.0002464 0.0133662 0.0002464 0.0133662 0.9997536 -0.0133662
2297 0.9997342 -0.0139761 0.0002658 0.0139761 0.0002658 0.0139761 0.9997342 -0.0139761
2402 0.9997130 -0.0146140 0.0002870 0.0146140 0.0002870 0.0146140 0.9997130 -0.0146140
2512 0.9996901 -0.0152809 0.0003099 0.0152809 0.0003099 0.0152809 0.9996901 -0.0152809
2627 0.9996650 -0.0159783 0.0003350 0.0159783 0.0003350 0.0159783 0.9996650 -0.0159783
2748 0.9996378 -0.0167075 0.0003622 0.0167075 0.0003622 0.0167075 0.9996378 -0.0167075
2873 0.9996081 -0.0174700 0.0003919 0.0174700 0.0003919 0.0174700 0.9996081 -0.0174700
3005 0.9995758 -0.0182673 0.0004242 0.0182673 0.0004242 0.0182673 0.9995758 -0.0182673
3143 0.9995405 -0.0191009 0.0004595 0.0191009 0.0004595 0.0191009 0.9995405 -0.0191009
3287 0.9995021 -0.0199725 0.0004979 0.0199725 0.0004979 0.0199725 0.9995021 -0.0199725
3437 0.9994602 -0.0208838 0.0005398 0.0208838 0.0005398 0.0208838 0.9994602 -0.0208838
3594 0.9994145 -0.0218366 0.0005855 0.0218366 0.0005855 0.0218366 0.9994145 -0.0218366
3759 0.9993647 -0.0228328 0.0006353 0.0228328 0.0006353 0.0228328 0.9993647 -0.0228328
3931 0.9993104 -0.0238743 0.0006896 0.0238743 0.0006896 0.0238743 0.9993104 -0.0238743
4111 0.9992512 -0.0249631 0.0007488 0.0249631 0.0007488 0.0249631 0.9992512 -0.0249631
4299 0.9991865 -0.0261014 0.0008135 0.0261014 0.0008135 0.0261014 0.9991865 -0.0261014
4496 0.9991160 -0.0272913 0.0008840 0.0272913 0.0008840 0.0272913 0.9991160 -0.0272913
4702 0.9990392 -0.0285353 0.0009608 0.0285353 0.0009608 0.0285353 0.9990392 -0.0285353
4918 0.9989553 -0.0298356 0.0010447 0.0298356 0.0010447 0.0298356 0.9989553 -0.0298356
5143 0.9988639 -0.0311948 0.0011361 0.0311948 0.0011361 0.0311948 0.9988639 -0.0311948
5378 0.9987642 -0.0326156 0.0012358 0.0326156 0.0012358 0.0326156 0.9987642 -0.0326156
5625 0.9986555 -0.0341006 0.0013445 0.0341006 0.0013445 0.0341006 0.9986555 -0.0341006
5882 0.9985370 -0.0356527 0.0014630 0.0356527 0.0014630 0.0356527 0.9985370 -0.0356527
6151 0.9984078 -0.0372748 0.0015922 0.0372748 0.0015922 0.0372748 0.9984078 -0.0372748
6433 0.9982669 -0.0389701 0.0017331 0.0389701 0.0017331 0.0389701 0.9982669 -0.0389701
6728 0.9981134 -0.0407417 0.0018866 0.0407417 0.0018866 0.0407417 0.9981134 -0.0407417
7036 0.9979461 -0.0425931 0.0020539 0.0425931 0.0020539 0.0425931 0.9979461 -0.0425931
7358 0.9977637 -0.0445277 0.0022363 0.0445277 0.0022363 0.0445277 0.9977637 -0.0445277
7695 0.9975650 -0.0465492 0.0024350 0.0465492 0.0024350 0.0465492 0.9975650 -0.0465492
8047 0.9973484 -0.0486613 0.0026516 0.0486613 0.0026516 0.0486613 0.9973484 -0.0486613
8416 0.9971125 -0.0508681 0.0028875 0.0508681 0.0028875 0.0508681 0.9971125 -0.0508681
8801 0.9968554 -0.0531735 0.0031446 0.0531735 0.0031446 0.0531735 0.9968554 -0.0531735
9204 0.9965753 -0.0555819 0.0034247 0.0555819 0.0034247 0.0555819 0.9965753 -0.0555819
9626 0.9962701 -0.0580977 0.0037299 0.0580977 0.0037299 0.0580977 0.9962701 -0.0580977
10066 0.9959376 -0.0607254 0.0040624 0.0607254 0.0040624 0.0607254 0.9959376 -0.0607254
10527 0.9955753 -0.0634700 0.0044247 0.0634700 0.0044247 0.0634700 0.9955753 -0.0634700
11009 0.9951806 -0.0663363 0.0048194 0.0663363 0.0048194 0.0663363 0.9951806 -0.0663363
11514 0.9947505 -0.0693294 0.0052495 0.0693294 0.0052495 0.0693294 0.9947505 -0.0693294
12041 0.9942819 -0.0724546 0.0057181 0.0724546 0.0057181 0.0724546 0.9942819 -0.0724546
12592 0.9937713 -0.0757175 0.0062287 0.0757175 0.0062287 0.0757175 0.9937713 -0.0757175
13169 0.9932150 -0.0791236 0.0067850 0.0791236 0.0067850 0.0791236 0.9932150 -0.0791236
13772 0.9926087 -0.0826788 0.0073913 0.0826788 0.0073913 0.0826788 0.9926087 -0.0826788
14402 0.9919480 -0.0863891 0.0080520 0.0863891 0.0080520 0.0863891 0.9919480 -0.0863891
15062 0.9912280 -0.0902606 0.0087720 0.0902606 0.0087720 0.0902606 0.9912280 -0.0902606
15752 0.9904434 -0.0942995 0.0095566 0.0942995 0.0095566 0.0942995 0.9904434 -0.0942995
16473 0.9895884 -0.0985122 0.0104116 0.0985122 0.0104116 0.0985122 0.9895884 -0.0985122
17227 0.9886566 -0.1029053 0.0113434 0.1029053 0.0113434 0.1029053 0.9886566 -0.1029053
18016 0.9876413 -0.1074853 0.0123587 0.1074853 0.0123587 0.1074853 0.9876413 -0.1074853
18841 0.9865349 -0.1122590 0.0134651 0.1122590 0.0134651 0.1122590 0.9865349 -0.1122590
19704 0.9853295 -0.1172330 0.0146705 0.1172330 0.0146705 0.1172330 0.9853295 -0.1172330
20606 0.9840162 -0.1224140 0.0159838 0.1224140 0.0159838 0.1224140 0.9840162 -0.1224140
21550 0.9825857 -0.1278088 0.0174143 0.1278088 0.0174143 0.1278088 0.9825857 -0.1278088
22537 0.9810277 -0.1334239 0.0189723 0.1334239 0.0189723 0.1334239 0.9810277 -0.1334239
23569 0.9793312 -0.1392658 0.0206688 0.1392658 0.0206688 0.1392658 0.9793312 -0.1392658
24648 0.9774844 -0.1453407 0.0225156 0.1453407 0.0225156 0.1453407 0.9774844 -0.1453407
25777 0.9754744 -0.1516548 0.0245256 0.1516548 0.0245256 0.1516548 0.9754744 -0.1516548
26957 0.9732875 -0.1582137 0.0267125 0.1582137 0.0267125 0.1582137 0.9732875 -0.1582137
28191 0.9709091 -0.1650226 0.0290909 0.1650226 0.0290909 0.1650226 0.9709091 -0.1650226
29482 0.9683232 -0.1720863 0.0316768 0.1720863 0.0316768 0.1720863 0.9683232 -0.1720863
30832 0.9655131 -0.1794090 0.0344869 0.1794090 0.0344869 0.1794090 0.9655131 -0.1794090
32244 0.9624609 -0.1869940 0.0375391 0.1869940 0.0375391 0.1869940 0.9624609 -0.1869940
33721 0.9591474 -0.1948437 0.0408526 0.1948437 0.0408526 0.1948437 0.9591474 -0.1948437
35265 0.9555524 -0.2029597 0.0444476 0.2029597 0.0444476 0.2029597 0.9555524 -0.2029597
36880 0.9516545 -0.2113423 0.0483455 0.2113423 0.0483455 0.2113423 0.9516545 -0.2113423
38569 0.9474311 -0.2199902 0.0525689 0.2199902 0.0525689 0.2199902 0.9474311 -0.2199902
40335 0.9428587 -0.2289009 0.0571413 0.2289009 0.0571413 0.2289009 0.9428587 -0.2289009
42182 0.9379126 -0.2380700 0.0620874 0.2380700 0.0620874 0.2380700 0.9379126 -0.2380700
44113 0.9325669 -0.2474911 0.0674331 0.2474911 0.0674331 0.2474911 0.9325669 -0.2474911
46134 0.9267952 -0.2571556 0.0732048 0.2571556 0.0732048 0.2571556 0.9267952 -0.2571556
48246 0.9205699 -0.2670525 0.0794301 0.2670525 0.0794301 0.2670525 0.9205699 -0.2670525
50455 0.9138632 -0.2771682 0.0861368 0.2771682 0.0861368 0.2771682 0.9138632 -0.2771682
52766 0.9066467 -0.2874863 0.0933533 0.2874863 0.0933533 0.2874863 0.9066467 -0.2874863
55182 0.8988917 -0.2979871 0.1011083 0.2979871 0.1011083 0.2979871 0.8988917 -0.2979871
57709 0.8905700 -0.3086476 0.1094300 0.3086476 0.1094300 0.3086476 0.8905700 -0.3086476
60352 0.8816534 -0.3194414 0.1183466 0.3194414 0.1183466 0.3194414 0.8816534 -0.3194414
63115 0.8721149 -0.3303384 0.1278851 0.3303384 0.1278851 0.3303384 0.8721149 -0.3303384
66005 0.8619286 -0.3413045 0.1380714 0.3413045 0.1380714 0.3413045 0.8619286 -0.3413045
69028 0.8510704 -0.3523017 0.1489296 0.3523017 0.1489296 0.3523017 0.8510704 -0.3523017
72189 0.8395185 -0.3632882 0.1604815 0.3632882 0.1604815 0.3632882 0.8395185 -0.3632882
75495 0.8272539 -0.3742182 0.1727461 0.3742182 0.1727461 0.3742182 0.8272539 -0.3742182
78952 0.8142610 -0.3850420 0.1857390 0.3850420 0.1857390 0.3850420 0.8142610 -0.3850420
82567 0.8005282 -0.3957061 0.1994718 0.3957061 0.1994718 0.3957061 0.8005282 -0.3957061
86348 0.7860487 -0.4061542 0.2139513 0.4061542 0.2139513 0.4061542 0.7860487 -0.4061542
90302 0.7708209 -0.4163264 0.2291791 0.4163264 0.2291791 0.4163264 0.7708209 -0.4163264
94437 0.7548490 -0.4261608 0.2451510 0.4261608 0.2451510 0.4261608 0.7548490 -0.4261608
98762 0.7381438 -0.4355936 0.2618562 0.4355936 0.2618562 0.4355936 0.7381438 -0.4355936
103284 0.7207228 -0.4445600 0.2792772 0.4445600 0.2792772 0.4445600 0.7207228 -0.4445600
108014 0.7026108 -0.4529948 0.2973892 0.4529948 0.2973892 0.4529948 0.7026108 -0.4529948
112960 0.6838403 -0.4608336 0.3161597 0.4608336 0.3161597 0.4608336 0.6838403 -0.4608336
118133 0.6644513 -0.4680139 0.3355487 0.4680139 0.3355487 0.4680139 0.6644513 -0.4680139
123542 0.6444914 -0.4744759 0.3555086 0.4744759 0.3555086 0.4744759 0.6444914 -0.4744759
129199 0.6240157 -0.4801637 0.3759843 0.4801637 0.3759843 0.4801637 0.6240157 -0.4801637
135116 0.6030864 -0.4850265 0.3969136 0.4850265 0.3969136 0.4850265 0.6030864 -0.4850265
141303 0.5817720 -0.4890194 0.4182280 0.4890194 0.4182280 0.4890194 0.5817720 -0.4890194
147774 0.5601467 -0.4921047 0.4398533 0.4921047 0.4398533 0.4921047 0.5601467 -0.4921047
154540 0.5382894 -0.4942526 0.4617106 0.4942526 0.4617106 0.4942526 0.5382894 -0.4942526
161617 0.5162826 -0.4954417 0.4837174 0.4954417 0.4837174 0.4954417 0.5162826 -0.4954417
169018 0.4942114 -0.4956599 0.5057886 0.4956599 0.5057886 0.4956599 0.4942114 -0.4956599
176758 0.4721619 -0.4949044 0.5278381 0.4949044 0.5278381 0.4949044 0.4721619 -0.4949044
184852 0.4502200 -0.4931819 0.5497800 0.4931819 0.5497800 0.4931819 0.4502200 -0.4931819
193316 0.4284701 -0.4905085 0.5715299 0.4905085 0.5715299 0.4905085 0.4284701 -0.4905085
202169 0.4069936 -0.4869093 0.5930064 0.4869093 0.5930064 0.4869093 0.4069936 -0.4869093
211427 0.3858682 -0.4824179 0.6141318 0.4824179 0.6141318 0.4824179 0.3858682 -0.4824179
221108 0.3651661 -0.4770756 0.6348339 0.4770756 0.6348339 0.4770756 0.3651661 -0.4770756
231233 0.3449538 -0.4709305 0.6550462 0.4709305 0.6550462 0.4709305 0.3449538 -0.4709305
241822 0.3252908 -0.4640364 0.6747092 0.4640364 0.6747092 0.4640364 0.3252908 -0.4640364
252896 0.3062293 -0.4564520 0.6937707 0.4564520 0.6937707 0.4564520 0.3062293 -0.4564520
264476 0.2878141 -0.4482394 0.7121859 0.4482394 0.7121859 0.4482394 0.2878141 -0.4482394
276587 0.2700816 -0.4394633 0.7299184 0.4394633 0.7299184 0.4394633 0.2700816 -0.4394633
289253 0.2530609 -0.4301896 0.7469391 0.4301896 0.7469391 0.4301896 0.2530609 -0.4301896
302498 0.2367731 -0.4204846 0.7632269 0.4204846 0.7632269 0.4204846 0.2367731 -0.4204846
316350 0.2212321 -0.4104140 0.7787679 0.4104140 0.7787679 0.4104140 0.2212321 -0.4104140
330837 0.2064449 -0.4000418 0.7935551 0.4000418 0.7935551 0.4000418 0.2064449 -0.4000418
345986 0.1924121 -0.3894301 0.8075879 0.3894301 0.8075879 0.3894301 0.1924121 -0.3894301
361830 0.1791285 -0.3786379 0.8208715 0.3786379 0.8208715 0.3786379 0.1791285 -0.3786379
378399 0.1665840 -0.3677209 0.8334160 0.3677209 0.8334160 0.3677209 0.1665840 -0.3677209
395726 0.1547639 -0.3567313 0.8452361 0.3567313 0.8452361 0.3567313 0.1547639 -0.3567313
413847 0.1436495 -0.3457172 0.8563505 0.3457172 0.8563505 0.3457172 0.1436495 -0.3457172
432798 0.1332193 -0.3347226 0.8667807 0.3347226 0.8667807 0.3347226 0.1332193 -0.3347226
452617 0.1234491 -0.3237876 0.8765509 0.3237876 0.8765509 0.3237876 0.1234491 -0.3237876
473344 0.1143126 -0.3129479 0.8856874 0.3129479 0.8856874 0.3129479 0.1143126 -0.3129479
495019 0.1057823 -0.3022351 0.8942177 0.3022351 0.8942177 0.3022351 0.1057823 -0.3022351
517687 0.0978297 -0.2916772 0.9021703 0.2916772 0.9021703 0.2916772 0.0978297 -0.2916772
541393 0.0904255 -0.2812983 0.9095745 0.2812983 0.9095745 0.2812983 0.0904255 -0.2812983
566185 0.0835405 -0.2711188 0.9164595 0.2711188 0.9164595 0.2711188 0.0835405 -0.2711188
592111 0.0771457 -0.2611561 0.9228543 0.2611561 0.9228543 0.2611561 0.0771457 -0.2611561
619225 0.0712122 -0.2514244 0.9287878 0.2514244 0.9287878 0.2514244 0.0712122 -0.2514244
647581 0.0657119 -0.2419352 0.9342881 0.2419352 0.9342881 0.2419352 0.0657119 -0.2419352
677235 0.0606177 -0.2326972 0.9393823 0.2326972 0.9393823 0.2326972 0.0606177 -0.2326972
708247 0.0559031 -0.2237171 0.9440969 0.2237171 0.9440969 0.2237171 0.0559031 -0.2237171
740679 0.0515429 -0.2149995 0.9484571 0.2149995 0.9484571 0.2149995 0.0515429 -0.2149995
774597 0.0475131 -0.2065469 0.9524869 0.2065469 0.9524869 0.2065469 0.0475131 -0.2065469
810067 0.0437906 -0.1983606 0.9562094 0.1983606 0.9562094 0.1983606 0.0437906 -0.1983606
847162 0.0403538 -0.1904401 0.9596462 0.1904401 0.9596462 0.1904401 0.0403538 -0.1904401
885955 0.0371821 -0.1827840 0.9628179 0.1827840 0.9628179 0.1827840 0.0371821 -0.1827840
926525 0.0342563 -0.1753897 0.9657437 0.1753897 0.9657437 0.1753897 0.0342563 -0.1753897
968953 0.0315583 -0.1682537 0.9684417 0.1682537 0.9684417 0.1682537 0.0315583 -0.1682537
1013323 0.0290711 -0.1613718 0.9709289 0.1613718 0.9709289 0.1613718 0.0290711 -0.1613718
1059725 0.0267790 -0.1547392 0.9732210 0.1547392 0.9732210 0.1547392 0.0267790 -0.1547392
1108252 0.0246673 -0.1483507 0.9753327 0.1483507 0.9753327 0.1483507 0.0246673 -0.1483507
1159002 0.0227222 -0.1422004 0.9772778 0.1422004 0.9772778 0.1422004 0.0227222 -0.1422004
1212075 0.0209309 -0.1362824 0.9790691 0.1362824 0.9790691 0.1362824 0.0209309 -0.1362824
1267578 0.0192818 -0.1305904 0.9807182 0.1305904 0.9807182 0.1305904 0.0192818 -0.1305904
1325623 0.0177639 -0.1251181 0.9822361 0.1251181 0.9822361 0.1251181 0.0177639 -0.1251181
1386327 0.0163669 -0.1198589 0.9836331 0.1198589 0.9836331 0.1198589 0.0163669 -0.1198589
1449809 0.0150816 -0.1148063 0.9849184 0.1148063 0.9849184 0.1148063 0.0150816 -0.1148063
1516199 0.0138993 -0.1099537 0.9861007 0.1099537 0.9861007 0.1099537 0.0138993 -0.1099537
1585629 0.0128119 -0.1052946 0.9871881 0.1052946 0.9871881 0.1052946 0.0128119 -0.1052946
1658239 0.0118120 -0.1008225 0.9881880 0.1008225 0.9881880 0.1008225 0.0118120 -0.1008225
1734173 0.0108928 -0.0965310 0.9891072 0.0965310 0.9891072 0.0965310 0.0108928 -0.0965310
1813585 0.0100479 -0.0924138 0.9899521 0.0924138 0.9899521 0.0924138 0.0100479 -0.0924138
1896632 0.0092716 -0.0884646 0.9907284 0.0884646 0.9907284 0.0884646 0.0092716 -0.0884646
1983483 0.0085583 -0.0846775 0.9914417 0.0846775 0.9914417 0.0846775 0.0085583 -0.0846775
2074311 0.0079031 -0.0810464 0.9920969 0.0810464 0.9920969 0.0810464 0.0079031 -0.0810464
